#   Hz   S  RI   R   50
!
0.000000e+00 4.709734e-03 0.000000e+00 9.954739e-01 0.000000e+00 9.955224e-01 0.000000e+00 4.754637e-03 0.000000e+00
2.000000e+08 4.709888e-03 -1.547624e-04 9.954718e-01 -1.727495e-03 9.955202e-01 -1.734282e-03 4.754745e-03 -1.603093e-04
4.000000e+08 4.710350e-03 -3.095496e-04 9.954655e-01 -3.454943e-03 9.955137e-01 -3.468512e-03 4.755068e-03 -3.206404e-04
6.000000e+08 4.711118e-03 -4.643864e-04 9.954550e-01 -5.182298e-03 9.955029e-01 -5.202639e-03 4.755606e-03 -4.810150e-04
8.000000e+08 4.712191e-03 -6.192976e-04 9.954403e-01 -6.909515e-03 9.954877e-01 -6.936611e-03 4.756356e-03 -6.414550e-04
1.000000e+09 4.713565e-03 -7.743078e-04 9.954213e-01 -8.636545e-03 9.954682e-01 -8.670377e-03 4.757316e-03 -8.019820e-04
1.200000e+09 4.715238e-03 -9.294415e-04 9.953982e-01 -1.036334e-02 9.954444e-01 -1.040389e-02 4.758484e-03 -9.626175e-04
1.400000e+09 4.717203e-03 -1.084723e-03 9.953709e-01 -1.208987e-02 9.954163e-01 -1.213709e-02 4.759854e-03 -1.123383e-03
1.600000e+09 4.719456e-03 -1.240177e-03 9.953395e-01 -1.381607e-02 9.953839e-01 -1.386993e-02 4.761423e-03 -1.284300e-03
1.800000e+09 4.721991e-03 -1.395827e-03 9.953038e-01 -1.554190e-02 9.953472e-01 -1.560237e-02 4.763184e-03 -1.445389e-03
2.000000e+09 4.724800e-03 -1.551697e-03 9.952640e-01 -1.726732e-02 9.953062e-01 -1.733435e-02 4.765133e-03 -1.606672e-03
2.200000e+09 4.727877e-03 -1.707810e-03 9.952201e-01 -1.899229e-02 9.952610e-01 -1.906582e-02 4.767262e-03 -1.768168e-03
2.400000e+09 4.731212e-03 -1.864190e-03 9.951720e-01 -2.071675e-02 9.952115e-01 -2.079674e-02 4.769564e-03 -1.929900e-03
2.600000e+09 4.734795e-03 -2.020860e-03 9.951199e-01 -2.244067e-02 9.951578e-01 -2.252705e-02 4.772030e-03 -2.091886e-03
2.800000e+09 4.738618e-03 -2.177842e-03 9.950636e-01 -2.416401e-02 9.950999e-01 -2.425672e-02 4.774653e-03 -2.254147e-03
3.000000e+09 4.742669e-03 -2.335159e-03 9.950033e-01 -2.588672e-02 9.950379e-01 -2.598570e-02 4.777423e-03 -2.416702e-03
3.200000e+09 4.746937e-03 -2.492832e-03 9.949389e-01 -2.760877e-02 9.949717e-01 -2.771394e-02 4.780330e-03 -2.579571e-03
3.400000e+09 4.751409e-03 -2.650883e-03 9.948705e-01 -2.933011e-02 9.949013e-01 -2.944139e-02 4.783364e-03 -2.742773e-03
3.600000e+09 4.756072e-03 -2.809332e-03 9.947981e-01 -3.105069e-02 9.948269e-01 -3.116802e-02 4.786512e-03 -2.906327e-03
3.800000e+09 4.760913e-03 -2.968201e-03 9.947216e-01 -3.277050e-02 9.947484e-01 -3.289377e-02 4.789764e-03 -3.070250e-03
4.000000e+09 4.765917e-03 -3.127510e-03 9.946413e-01 -3.448948e-02 9.946658e-01 -3.461862e-02 4.793107e-03 -3.234560e-03
4.200000e+09 4.771070e-03 -3.287277e-03 9.945570e-01 -3.620760e-02 9.945792e-01 -3.634252e-02 4.796528e-03 -3.399276e-03
4.400000e+09 4.776355e-03 -3.447523e-03 9.944687e-01 -3.792482e-02 9.944886e-01 -3.806543e-02 4.800013e-03 -3.564414e-03
4.600000e+09 4.781758e-03 -3.608265e-03 9.943766e-01 -3.964111e-02 9.943941e-01 -3.978732e-02 4.803550e-03 -3.729990e-03
4.800000e+09 4.787260e-03 -3.769522e-03 9.942807e-01 -4.135644e-02 9.942956e-01 -4.150814e-02 4.807122e-03 -3.896020e-03
5.000000e+09 4.792844e-03 -3.931311e-03 9.941809e-01 -4.307077e-02 9.941933e-01 -4.322787e-02 4.810715e-03 -4.062521e-03
5.200000e+09 4.798494e-03 -4.093648e-03 9.940773e-01 -4.478408e-02 9.940871e-01 -4.494646e-02 4.814314e-03 -4.229507e-03
5.400000e+09 4.804189e-03 -4.256550e-03 9.939700e-01 -4.649632e-02 9.939771e-01 -4.666389e-02 4.817903e-03 -4.396992e-03
5.600000e+09 4.809912e-03 -4.420033e-03 9.938589e-01 -4.820747e-02 9.938633e-01 -4.838013e-02 4.821464e-03 -4.564992e-03
5.800000e+09 4.815642e-03 -4.584111e-03 9.937442e-01 -4.991751e-02 9.937457e-01 -5.009514e-02 4.824982e-03 -4.733518e-03
6.000000e+09 4.821361e-03 -4.748798e-03 9.936257e-01 -5.162640e-02 9.936244e-01 -5.180889e-02 4.828439e-03 -4.902585e-03
6.200000e+09 4.827047e-03 -4.914109e-03 9.935037e-01 -5.333412e-02 9.934995e-01 -5.352137e-02 4.831816e-03 -5.072205e-03
6.400000e+09 4.832681e-03 -5.080055e-03 9.933780e-01 -5.504065e-02 9.933710e-01 -5.523255e-02 4.835098e-03 -5.242389e-03
6.600000e+09 4.838240e-03 -5.246649e-03 9.932488e-01 -5.674596e-02 9.932388e-01 -5.694239e-02 4.838264e-03 -5.413148e-03
6.800000e+09 4.843704e-03 -5.413903e-03 9.931160e-01 -5.845004e-02 9.931031e-01 -5.865088e-02 4.841296e-03 -5.584494e-03
7.000000e+09 4.849051e-03 -5.581827e-03 9.929798e-01 -6.015285e-02 9.929639e-01 -6.035800e-02 4.844176e-03 -5.756435e-03
7.200000e+09 4.854258e-03 -5.750431e-03 9.928401e-01 -6.185438e-02 9.928212e-01 -6.206373e-02 4.846883e-03 -5.928983e-03
7.400000e+09 4.859304e-03 -5.919725e-03 9.926970e-01 -6.355461e-02 9.926751e-01 -6.376805e-02 4.849399e-03 -6.102144e-03
7.600000e+09 4.864166e-03 -6.089717e-03 9.925505e-01 -6.525353e-02 9.925257e-01 -6.547094e-02 4.851703e-03 -6.275928e-03
7.800000e+09 4.868821e-03 -6.260415e-03 9.924007e-01 -6.695112e-02 9.923729e-01 -6.717239e-02 4.853776e-03 -6.450342e-03
8.000000e+09 4.873246e-03 -6.431826e-03 9.922475e-01 -6.864736e-02 9.922167e-01 -6.887239e-02 4.855597e-03 -6.625393e-03
8.200000e+09 4.877418e-03 -6.603956e-03 9.920911e-01 -7.034225e-02 9.920574e-01 -7.057092e-02 4.857146e-03 -6.801087e-03
8.400000e+09 4.881313e-03 -6.776811e-03 9.919315e-01 -7.203577e-02 9.918948e-01 -7.226798e-02 4.858402e-03 -6.977429e-03
8.600000e+09 4.884908e-03 -6.950395e-03 9.917687e-01 -7.372791e-02 9.917291e-01 -7.396355e-02 4.859344e-03 -7.154424e-03
8.800000e+09 4.888180e-03 -7.124713e-03 9.916027e-01 -7.541866e-02 9.915602e-01 -7.565763e-02 4.859952e-03 -7.332078e-03
9.000000e+09 4.891104e-03 -7.299768e-03 9.914336e-01 -7.710801e-02 9.913882e-01 -7.735021e-02 4.860205e-03 -7.510392e-03
9.200000e+09 4.893658e-03 -7.475563e-03 9.912614e-01 -7.879596e-02 9.912132e-01 -7.904130e-02 4.860082e-03 -7.689371e-03
9.400000e+09 4.895817e-03 -7.652098e-03 9.910862e-01 -8.048251e-02 9.910352e-01 -8.073088e-02 4.859562e-03 -7.869017e-03
9.600000e+09 4.897558e-03 -7.829376e-03 9.909080e-01 -8.216765e-02 9.908543e-01 -8.241895e-02 4.858624e-03 -8.049331e-03
9.800000e+09 4.898857e-03 -8.007397e-03 9.907268e-01 -8.385137e-02 9.906704e-01 -8.410552e-02 4.857246e-03 -8.230314e-03
1.000000e+10 4.899690e-03 -8.186159e-03 9.905427e-01 -8.553368e-02 9.904836e-01 -8.579058e-02 4.855407e-03 -8.411967e-03
1.020000e+10 4.900035e-03 -8.365662e-03 9.903557e-01 -8.721457e-02 9.902940e-01 -8.747415e-02 4.853088e-03 -8.594290e-03
1.040000e+10 4.899867e-03 -8.545905e-03 9.901658e-01 -8.889405e-02 9.901016e-01 -8.915622e-02 4.850266e-03 -8.777281e-03
1.060000e+10 4.899163e-03 -8.726883e-03 9.899731e-01 -9.057212e-02 9.899065e-01 -9.083680e-02 4.846920e-03 -8.960939e-03
1.080000e+10 4.897900e-03 -8.908595e-03 9.897777e-01 -9.224879e-02 9.897086e-01 -9.251590e-02 4.843031e-03 -9.145262e-03
1.100000e+10 4.896056e-03 -9.091035e-03 9.895794e-01 -9.392405e-02 9.895081e-01 -9.419353e-02 4.838576e-03 -9.330247e-03
1.120000e+10 4.893606e-03 -9.274200e-03 9.893785e-01 -9.559791e-02 9.893049e-01 -9.586969e-02 4.833537e-03 -9.515891e-03
1.140000e+10 4.890529e-03 -9.458083e-03 9.891749e-01 -9.727039e-02 9.890991e-01 -9.754440e-02 4.827891e-03 -9.702189e-03
1.160000e+10 4.886803e-03 -9.642678e-03 9.889686e-01 -9.894148e-02 9.888907e-01 -9.921767e-02 4.821620e-03 -9.889138e-03
1.180000e+10 4.882405e-03 -9.827980e-03 9.887597e-01 -1.006112e-01 9.886798e-01 -1.008895e-01 4.814702e-03 -1.007673e-02
1.200000e+10 4.877313e-03 -1.001398e-02 9.885483e-01 -1.022796e-01 9.884664e-01 -1.025599e-01 4.807118e-03 -1.026496e-02
1.220000e+10 4.871507e-03 -1.020067e-02 9.883343e-01 -1.039466e-01 9.882505e-01 -1.042290e-01 4.798849e-03 -1.045383e-02
1.240000e+10 4.864964e-03 -1.038804e-02 9.881177e-01 -1.056122e-01 9.880322e-01 -1.058966e-01 4.789875e-03 -1.064332e-02
1.260000e+10 4.857664e-03 -1.057608e-02 9.878987e-01 -1.072766e-01 9.878114e-01 -1.075629e-01 4.780177e-03 -1.083343e-02
1.280000e+10 4.849586e-03 -1.076479e-02 9.876772e-01 -1.089396e-01 9.875883e-01 -1.092278e-01 4.769736e-03 -1.102415e-02
1.300000e+10 4.840711e-03 -1.095415e-02 9.874532e-01 -1.106013e-01 9.873629e-01 -1.108914e-01 4.758534e-03 -1.121548e-02
1.320000e+10 4.831018e-03 -1.114415e-02 9.872269e-01 -1.122618e-01 9.871351e-01 -1.125537e-01 4.746551e-03 -1.140739e-02
1.340000e+10 4.820488e-03 -1.133477e-02 9.869982e-01 -1.139210e-01 9.869051e-01 -1.142148e-01 4.733771e-03 -1.159989e-02
1.360000e+10 4.809103e-03 -1.152602e-02 9.867671e-01 -1.155789e-01 9.866727e-01 -1.158745e-01 4.720176e-03 -1.179296e-02
1.380000e+10 4.796843e-03 -1.171786e-02 9.865336e-01 -1.172356e-01 9.864382e-01 -1.175330e-01 4.705747e-03 -1.198660e-02
1.400000e+10 4.783691e-03 -1.191030e-02 9.862979e-01 -1.188911e-01 9.862014e-01 -1.191903e-01 4.690470e-03 -1.218079e-02
1.420000e+10 4.769629e-03 -1.210332e-02 9.860599e-01 -1.205454e-01 9.859624e-01 -1.208464e-01 4.674326e-03 -1.237551e-02
1.440000e+10 4.754640e-03 -1.229690e-02 9.858196e-01 -1.221985e-01 9.857213e-01 -1.225014e-01 4.657300e-03 -1.257077e-02
1.460000e+10 4.738708e-03 -1.249103e-02 9.855771e-01 -1.238505e-01 9.854780e-01 -1.241552e-01 4.639375e-03 -1.276655e-02
1.480000e+10 4.721815e-03 -1.268569e-02 9.853323e-01 -1.255014e-01 9.852325e-01 -1.258078e-01 4.620537e-03 -1.296282e-02
1.500000e+10 4.703947e-03 -1.288087e-02 9.850854e-01 -1.271511e-01 9.849850e-01 -1.274594e-01 4.600771e-03 -1.315959e-02
1.520000e+10 4.685089e-03 -1.307656e-02 9.848362e-01 -1.287997e-01 9.847353e-01 -1.291099e-01 4.580061e-03 -1.335684e-02
1.540000e+10 4.665225e-03 -1.327272e-02 9.845849e-01 -1.304473e-01 9.844836e-01 -1.307594e-01 4.558395e-03 -1.355455e-02
1.560000e+10 4.644342e-03 -1.346936e-02 9.843314e-01 -1.320938e-01 9.842298e-01 -1.324078e-01 4.535757e-03 -1.375270e-02
1.580000e+10 4.622427e-03 -1.366646e-02 9.840758e-01 -1.337393e-01 9.839739e-01 -1.340553e-01 4.512136e-03 -1.395130e-02
1.600000e+10 4.599465e-03 -1.386398e-02 9.838181e-01 -1.353838e-01 9.837160e-01 -1.357018e-01 4.487518e-03 -1.415031e-02
1.620000e+10 4.575446e-03 -1.406193e-02 9.835582e-01 -1.370273e-01 9.834561e-01 -1.373474e-01 4.461890e-03 -1.434973e-02
1.640000e+10 4.550356e-03 -1.426027e-02 9.832962e-01 -1.386699e-01 9.831941e-01 -1.389921e-01 4.435242e-03 -1.454953e-02
1.660000e+10 4.524186e-03 -1.445900e-02 9.830322e-01 -1.403116e-01 9.829301e-01 -1.406358e-01 4.407561e-03 -1.474972e-02
1.680000e+10 4.496923e-03 -1.465809e-02 9.827660e-01 -1.419523e-01 9.826641e-01 -1.422788e-01 4.378837e-03 -1.495026e-02
1.700000e+10 4.468558e-03 -1.485753e-02 9.824978e-01 -1.435921e-01 9.823961e-01 -1.439209e-01 4.349059e-03 -1.515114e-02
1.720000e+10 4.439082e-03 -1.505730e-02 9.822275e-01 -1.452311e-01 9.821261e-01 -1.455622e-01 4.318217e-03 -1.535234e-02
1.740000e+10 4.408485e-03 -1.525737e-02 9.819552e-01 -1.468693e-01 9.818541e-01 -1.472028e-01 4.286303e-03 -1.555386e-02
1.760000e+10 4.376759e-03 -1.545773e-02 9.816808e-01 -1.485066e-01 9.815801e-01 -1.488426e-01 4.253307e-03 -1.575567e-02
1.780000e+10 4.343896e-03 -1.565836e-02 9.814043e-01 -1.501432e-01 9.813040e-01 -1.504817e-01 4.219220e-03 -1.595775e-02
1.800000e+10 4.309889e-03 -1.585924e-02 9.811258e-01 -1.517790e-01 9.810260e-01 -1.521201e-01 4.184035e-03 -1.616009e-02
1.820000e+10 4.274731e-03 -1.606036e-02 9.808452e-01 -1.534141e-01 9.807460e-01 -1.537578e-01 4.147744e-03 -1.636267e-02
1.840000e+10 4.238417e-03 -1.626168e-02 9.805626e-01 -1.550484e-01 9.804640e-01 -1.553949e-01 4.110341e-03 -1.656548e-02
1.860000e+10 4.200940e-03 -1.646320e-02 9.802779e-01 -1.566820e-01 9.801800e-01 -1.570314e-01 4.071818e-03 -1.676849e-02
1.880000e+10 4.162296e-03 -1.666489e-02 9.799912e-01 -1.583150e-01 9.798940e-01 -1.586673e-01 4.032171e-03 -1.697169e-02
1.900000e+10 4.122481e-03 -1.686673e-02 9.797024e-01 -1.599473e-01 9.796060e-01 -1.603026e-01 3.991393e-03 -1.717506e-02
1.920000e+10 4.081490e-03 -1.706870e-02 9.794116e-01 -1.615790e-01 9.793159e-01 -1.619374e-01 3.949479e-03 -1.737858e-02
1.940000e+10 4.039322e-03 -1.727079e-02 9.791187e-01 -1.632101e-01 9.790239e-01 -1.635717e-01 3.906426e-03 -1.758224e-02
1.960000e+10 3.995972e-03 -1.747298e-02 9.788238e-01 -1.648406e-01 9.787297e-01 -1.652055e-01 3.862230e-03 -1.778602e-02
1.980000e+10 3.951439e-03 -1.767523e-02 9.785268e-01 -1.664705e-01 9.784336e-01 -1.668389e-01 3.816886e-03 -1.798990e-02
2.000000e+10 3.905722e-03 -1.787755e-02 9.782277e-01 -1.680999e-01 9.781353e-01 -1.684717e-01 3.770392e-03 -1.819386e-02
2.020000e+10 3.858819e-03 -1.807989e-02 9.779266e-01 -1.697288e-01 9.778350e-01 -1.701042e-01 3.722745e-03 -1.839788e-02
2.040000e+10 3.810730e-03 -1.828226e-02 9.776233e-01 -1.713572e-01 9.775327e-01 -1.717363e-01 3.673944e-03 -1.860196e-02
2.060000e+10 3.761456e-03 -1.848462e-02 9.773180e-01 -1.729851e-01 9.772282e-01 -1.733679e-01 3.623987e-03 -1.880606e-02
2.080000e+10 3.710997e-03 -1.868696e-02 9.770105e-01 -1.746125e-01 9.769216e-01 -1.749992e-01 3.572873e-03 -1.901017e-02
2.100000e+10 3.659354e-03 -1.888926e-02 9.767010e-01 -1.762395e-01 9.766129e-01 -1.766302e-01 3.520602e-03 -1.921428e-02
2.120000e+10 3.606528e-03 -1.909149e-02 9.763893e-01 -1.778660e-01 9.763020e-01 -1.782608e-01 3.467173e-03 -1.941836e-02
2.140000e+10 3.552523e-03 -1.929365e-02 9.760754e-01 -1.794921e-01 9.759890e-01 -1.798911e-01 3.412587e-03 -1.962240e-02
2.160000e+10 3.497341e-03 -1.949572e-02 9.757595e-01 -1.811179e-01 9.756739e-01 -1.815211e-01 3.356845e-03 -1.982639e-02
2.180000e+10 3.440985e-03 -1.969767e-02 9.754413e-01 -1.827432e-01 9.753565e-01 -1.831508e-01 3.299947e-03 -2.003030e-02
2.200000e+10 3.383459e-03 -1.989948e-02 9.751210e-01 -1.843682e-01 9.750369e-01 -1.847802e-01 3.241897e-03 -2.023412e-02
2.220000e+10 3.324767e-03 -2.010115e-02 9.747985e-01 -1.859928e-01 9.747151e-01 -1.864094e-01 3.182695e-03 -2.043783e-02
2.240000e+10 3.264913e-03 -2.030264e-02 9.744738e-01 -1.876171e-01 9.743911e-01 -1.880384e-01 3.122345e-03 -2.064142e-02
2.260000e+10 3.203903e-03 -2.050395e-02 9.741468e-01 -1.892411e-01 9.740648e-01 -1.896671e-01 3.060849e-03 -2.084486e-02
2.280000e+10 3.141742e-03 -2.070506e-02 9.738177e-01 -1.908647e-01 9.737362e-01 -1.912956e-01 2.998211e-03 -2.104815e-02
2.300000e+10 3.078436e-03 -2.090595e-02 9.734862e-01 -1.924881e-01 9.734053e-01 -1.929238e-01 2.934434e-03 -2.125126e-02
2.320000e+10 3.013991e-03 -2.110661e-02 9.731526e-01 -1.941111e-01 9.730721e-01 -1.945519e-01 2.869524e-03 -2.145418e-02
2.340000e+10 2.948415e-03 -2.130701e-02 9.728166e-01 -1.957339e-01 9.727366e-01 -1.961798e-01 2.803484e-03 -2.165690e-02
2.360000e+10 2.881714e-03 -2.150714e-02 9.724783e-01 -1.973563e-01 9.723987e-01 -1.978074e-01 2.736320e-03 -2.185940e-02
2.380000e+10 2.813895e-03 -2.170699e-02 9.721377e-01 -1.989786e-01 9.720584e-01 -1.994349e-01 2.668036e-03 -2.206166e-02
2.400000e+10 2.744967e-03 -2.190655e-02 9.717948e-01 -2.006005e-01 9.717157e-01 -2.010623e-01 2.598639e-03 -2.226367e-02
2.420000e+10 2.674938e-03 -2.210579e-02 9.714495e-01 -2.022222e-01 9.713705e-01 -2.026894e-01 2.528134e-03 -2.246541e-02
2.440000e+10 2.603816e-03 -2.230470e-02 9.711019e-01 -2.038437e-01 9.710230e-01 -2.043164e-01 2.456529e-03 -2.266688e-02
2.460000e+10 2.531610e-03 -2.250327e-02 9.707518e-01 -2.054649e-01 9.706729e-01 -2.059431e-01 2.383828e-03 -2.286805e-02
2.480000e+10 2.458330e-03 -2.270149e-02 9.703994e-01 -2.070859e-01 9.703204e-01 -2.075698e-01 2.310041e-03 -2.306891e-02
2.500000e+10 2.383984e-03 -2.289933e-02 9.700445e-01 -2.087066e-01 9.699653e-01 -2.091962e-01 2.235173e-03 -2.326945e-02
2.520000e+10 2.308583e-03 -2.309680e-02 9.696872e-01 -2.103271e-01 9.696077e-01 -2.108225e-01 2.159232e-03 -2.346966e-02
2.540000e+10 2.232136e-03 -2.329387e-02 9.693274e-01 -2.119474e-01 9.692476e-01 -2.124486e-01 2.082227e-03 -2.366952e-02
2.560000e+10 2.154654e-03 -2.349054e-02 9.689651e-01 -2.135675e-01 9.688849e-01 -2.140745e-01 2.004165e-03 -2.386902e-02
2.580000e+10 2.076148e-03 -2.368678e-02 9.686004e-01 -2.151873e-01 9.685196e-01 -2.157003e-01 1.925056e-03 -2.406815e-02
2.600000e+10 1.996627e-03 -2.388260e-02 9.682331e-01 -2.168069e-01 9.681516e-01 -2.173259e-01 1.844906e-03 -2.426689e-02
2.620000e+10 1.916103e-03 -2.407798e-02 9.678632e-01 -2.184263e-01 9.677810e-01 -2.189513e-01 1.763726e-03 -2.446524e-02
2.640000e+10 1.834587e-03 -2.427290e-02 9.674909e-01 -2.200454e-01 9.674078e-01 -2.205764e-01 1.681524e-03 -2.466317e-02
2.660000e+10 1.752091e-03 -2.446737e-02 9.671159e-01 -2.216643e-01 9.670319e-01 -2.222014e-01 1.598310e-03 -2.486070e-02
2.680000e+10 1.668625e-03 -2.466136e-02 9.667384e-01 -2.232829e-01 9.666533e-01 -2.238262e-01 1.514093e-03 -2.505779e-02
2.700000e+10 1.584202e-03 -2.485487e-02 9.663582e-01 -2.249014e-01 9.662719e-01 -2.254508e-01 1.428883e-03 -2.525444e-02
2.720000e+10 1.498833e-03 -2.504789e-02 9.659754e-01 -2.265195e-01 9.658879e-01 -2.270751e-01 1.342690e-03 -2.545064e-02
2.740000e+10 1.412530e-03 -2.524041e-02 9.655899e-01 -2.281374e-01 9.655010e-01 -2.286992e-01 1.255523e-03 -2.564639e-02
2.760000e+10 1.325305e-03 -2.543243e-02 9.652018e-01 -2.297551e-01 9.651114e-01 -2.303231e-01 1.167393e-03 -2.584166e-02
2.780000e+10 1.237169e-03 -2.562393e-02 9.648110e-01 -2.313724e-01 9.647190e-01 -2.319467e-01 1.078311e-03 -2.603646e-02
2.800000e+10 1.148136e-03 -2.581492e-02 9.644176e-01 -2.329895e-01 9.643238e-01 -2.335700e-01 9.882859e-04 -2.623078e-02
2.820000e+10 1.058218e-03 -2.600537e-02 9.640213e-01 -2.346064e-01 9.639257e-01 -2.351931e-01 8.973292e-04 -2.642460e-02
2.840000e+10 9.674254e-04 -2.619529e-02 9.636224e-01 -2.362229e-01 9.635248e-01 -2.368158e-01 8.054513e-04 -2.661791e-02
2.860000e+10 8.757721e-04 -2.638467e-02 9.632207e-01 -2.378391e-01 9.631211e-01 -2.384383e-01 7.126630e-04 -2.681072e-02
2.880000e+10 7.832699e-04 -2.657350e-02 9.628163e-01 -2.394550e-01 9.627144e-01 -2.400604e-01 6.189751e-04 -2.700301e-02
2.900000e+10 6.899312e-04 -2.676178e-02 9.624090e-01 -2.410706e-01 9.623049e-01 -2.416821e-01 5.243984e-04 -2.719478e-02
2.920000e+10 5.957682e-04 -2.694950e-02 9.619990e-01 -2.426858e-01 9.618925e-01 -2.433036e-01 4.289440e-04 -2.738602e-02
2.940000e+10 5.007933e-04 -2.713667e-02 9.615861e-01 -2.443007e-01 9.614771e-01 -2.449246e-01 3.326227e-04 -2.757673e-02
2.960000e+10 4.050187e-04 -2.732327e-02 9.611705e-01 -2.459153e-01 9.610588e-01 -2.465453e-01 2.354457e-04 -2.776689e-02
2.980000e+10 3.084567e-04 -2.750930e-02 9.607520e-01 -2.475294e-01 9.606376e-01 -2.481655e-01 1.374238e-04 -2.795650e-02
3.000000e+10 2.111193e-04 -2.769476e-02 9.603306e-01 -2.491432e-01 9.602134e-01 -2.497853e-01 3.856828e-05 -2.814557e-02
3.020000e+10 1.130186e-04 -2.787964e-02 9.599064e-01 -2.507566e-01 9.597863e-01 -2.514047e-01 -6.110994e-05 -2.833407e-02
3.040000e+10 1.416668e-05 -2.806395e-02 9.594793e-01 -2.523695e-01 9.593561e-01 -2.530236e-01 -1.615998e-04 -2.852202e-02
3.060000e+10 -8.542460e-05 -2.824768e-02 9.590493e-01 -2.539821e-01 9.589230e-01 -2.546421e-01 -2.628903e-04 -2.870940e-02
3.080000e+10 -1.857434e-04 -2.843083e-02 9.586165e-01 -2.555941e-01 9.584869e-01 -2.562600e-01 -3.649704e-04 -2.889622e-02
3.100000e+10 -2.867782e-04 -2.861339e-02 9.581807e-01 -2.572057e-01 9.580478e-01 -2.578774e-01 -4.678293e-04 -2.908246e-02
3.120000e+10 -3.885172e-04 -2.879537e-02 9.577420e-01 -2.588169e-01 9.576056e-01 -2.594943e-01 -5.714560e-04 -2.926812e-02
3.140000e+10 -4.909492e-04 -2.897677e-02 9.573004e-01 -2.604275e-01 9.571605e-01 -2.611106e-01 -6.758397e-04 -2.945321e-02
3.160000e+10 -5.940628e-04 -2.915759e-02 9.568558e-01 -2.620377e-01 9.567123e-01 -2.627264e-01 -7.809696e-04 -2.963772e-02
3.180000e+10 -6.978469e-04 -2.933782e-02 9.564083e-01 -2.636473e-01 9.562611e-01 -2.643415e-01 -8.868352e-04 -2.982165e-02
3.200000e+10 -8.022907e-04 -2.951746e-02 9.559579e-01 -2.652563e-01 9.558068e-01 -2.659561e-01 -9.934259e-04 -3.000499e-02
3.220000e+10 -9.073833e-04 -2.969653e-02 9.555044e-01 -2.668648e-01 9.553495e-01 -2.675700e-01 -1.100731e-03 -3.018775e-02
3.240000e+10 -1.013114e-03 -2.987501e-02 9.550481e-01 -2.684727e-01 9.548892e-01 -2.691832e-01 -1.208740e-03 -3.036993e-02
3.260000e+10 -1.119473e-03 -3.005291e-02 9.545887e-01 -2.700801e-01 9.544258e-01 -2.707958e-01 -1.317444e-03 -3.055151e-02
