#   Hz   S  RI   R   50
!
0.000000e+00 5.734707e-04 0.000000e+00 9.993769e-01 0.000000e+00 9.993877e-01 0.000000e+00 5.660984e-04 0.000000e+00
1.000000e+08 5.734725e-04 -7.923162e-06 9.993769e-01 -7.680766e-05 9.993877e-01 -7.688543e-05 5.661007e-04 -8.838756e-06
2.000000e+08 5.734781e-04 -1.584637e-05 9.993769e-01 -1.536152e-04 9.993877e-01 -1.537708e-04 5.661077e-04 -1.767754e-05
3.000000e+08 5.734874e-04 -2.376965e-05 9.993768e-01 -2.304227e-04 9.993876e-01 -2.306559e-04 5.661193e-04 -2.651638e-05
4.000000e+08 5.735004e-04 -3.169307e-05 9.993768e-01 -3.072298e-04 9.993876e-01 -3.075407e-04 5.661355e-04 -3.535530e-05
5.000000e+08 5.735171e-04 -3.961665e-05 9.993768e-01 -3.840367e-04 9.993875e-01 -3.844252e-04 5.661563e-04 -4.419434e-05
6.000000e+08 5.735375e-04 -4.754045e-05 9.993767e-01 -4.608431e-04 9.993875e-01 -4.613092e-04 5.661818e-04 -5.303351e-05
7.000000e+08 5.735616e-04 -5.546449e-05 9.993766e-01 -5.376491e-04 9.993874e-01 -5.381926e-04 5.662119e-04 -6.187286e-05
8.000000e+08 5.735894e-04 -6.338883e-05 9.993765e-01 -6.144545e-04 9.993873e-01 -6.150753e-04 5.662466e-04 -7.071239e-05
9.000000e+08 5.736209e-04 -7.131351e-05 9.993764e-01 -6.912593e-04 9.993872e-01 -6.919572e-04 5.662860e-04 -7.955216e-05
1.000000e+09 5.736561e-04 -7.923856e-05 9.993763e-01 -7.680634e-04 9.993870e-01 -7.688383e-04 5.663299e-04 -8.839217e-05
1.100000e+09 5.736950e-04 -8.716404e-05 9.993762e-01 -8.448666e-04 9.993869e-01 -8.457184e-04 5.663785e-04 -9.723246e-05
1.200000e+09 5.737376e-04 -9.508997e-05 9.993761e-01 -9.216690e-04 9.993867e-01 -9.225974e-04 5.664317e-04 -1.060731e-04
1.300000e+09 5.737838e-04 -1.030164e-04 9.993759e-01 -9.984704e-04 9.993866e-01 -9.994753e-04 5.664895e-04 -1.149140e-04
1.400000e+09 5.738338e-04 -1.109434e-04 9.993758e-01 -1.075271e-03 9.993864e-01 -1.076352e-03 5.665519e-04 -1.237553e-04
1.500000e+09 5.738873e-04 -1.188710e-04 9.993756e-01 -1.152070e-03 9.993862e-01 -1.153227e-03 5.666189e-04 -1.325970e-04
1.600000e+09 5.739446e-04 -1.267992e-04 9.993754e-01 -1.228868e-03 9.993860e-01 -1.230101e-03 5.666905e-04 -1.414391e-04
1.700000e+09 5.740055e-04 -1.347280e-04 9.993752e-01 -1.305665e-03 9.993858e-01 -1.306973e-03 5.667666e-04 -1.502816e-04
1.800000e+09 5.740700e-04 -1.426576e-04 9.993750e-01 -1.382460e-03 9.993855e-01 -1.383844e-03 5.668474e-04 -1.591247e-04
1.900000e+09 5.741382e-04 -1.505880e-04 9.993748e-01 -1.459254e-03 9.993853e-01 -1.460713e-03 5.669327e-04 -1.679682e-04
2.000000e+09 5.742100e-04 -1.585191e-04 9.993746e-01 -1.536047e-03 9.993850e-01 -1.537580e-03 5.670226e-04 -1.768122e-04
2.100000e+09 5.742854e-04 -1.664511e-04 9.993743e-01 -1.612838e-03 9.993848e-01 -1.614445e-03 5.671170e-04 -1.856568e-04
2.200000e+09 5.743644e-04 -1.743839e-04 9.993741e-01 -1.689627e-03 9.993845e-01 -1.691308e-03 5.672160e-04 -1.945020e-04
2.300000e+09 5.744470e-04 -1.823176e-04 9.993738e-01 -1.766414e-03 9.993842e-01 -1.768169e-03 5.673195e-04 -2.033478e-04
2.400000e+09 5.745332e-04 -1.902524e-04 9.993735e-01 -1.843200e-03 9.993839e-01 -1.845028e-03 5.674276e-04 -2.121943e-04
2.500000e+09 5.746229e-04 -1.981881e-04 9.993732e-01 -1.919984e-03 9.993835e-01 -1.921885e-03 5.675402e-04 -2.210414e-04
2.600000e+09 5.747162e-04 -2.061248e-04 9.993730e-01 -1.996766e-03 9.993832e-01 -1.998739e-03 5.676573e-04 -2.298892e-04
2.700000e+09 5.748131e-04 -2.140627e-04 9.993726e-01 -2.073545e-03 9.993829e-01 -2.075591e-03 5.677789e-04 -2.387377e-04
2.800000e+09 5.749135e-04 -2.220016e-04 9.993723e-01 -2.150323e-03 9.993825e-01 -2.152440e-03 5.679050e-04 -2.475869e-04
2.900000e+09 5.750174e-04 -2.299417e-04 9.993720e-01 -2.227098e-03 9.993821e-01 -2.229286e-03 5.680355e-04 -2.564370e-04
3.000000e+09 5.751248e-04 -2.378830e-04 9.993716e-01 -2.303872e-03 9.993817e-01 -2.306130e-03 5.681706e-04 -2.652878e-04
3.100000e+09 5.752357e-04 -2.458256e-04 9.993713e-01 -2.380642e-03 9.993813e-01 -2.382971e-03 5.683101e-04 -2.741395e-04
3.200000e+09 5.753501e-04 -2.537694e-04 9.993709e-01 -2.457411e-03 9.993809e-01 -2.459808e-03 5.684541e-04 -2.829920e-04
3.300000e+09 5.754679e-04 -2.617146e-04 9.993706e-01 -2.534176e-03 9.993805e-01 -2.536643e-03 5.686025e-04 -2.918454e-04
3.400000e+09 5.755892e-04 -2.696611e-04 9.993702e-01 -2.610940e-03 9.993800e-01 -2.613475e-03 5.687553e-04 -3.006997e-04
3.500000e+09 5.757140e-04 -2.776090e-04 9.993698e-01 -2.687700e-03 9.993796e-01 -2.690304e-03 5.689125e-04 -3.095549e-04
3.600000e+09 5.758421e-04 -2.855584e-04 9.993693e-01 -2.764458e-03 9.993791e-01 -2.767129e-03 5.690742e-04 -3.184111e-04
3.700000e+09 5.759736e-04 -2.935092e-04 9.993689e-01 -2.841213e-03 9.993786e-01 -2.843951e-03 5.692402e-04 -3.272682e-04
3.800000e+09 5.761085e-04 -3.014615e-04 9.993685e-01 -2.917965e-03 9.993782e-01 -2.920769e-03 5.694106e-04 -3.361264e-04
3.900000e+09 5.762468e-04 -3.094154e-04 9.993680e-01 -2.994714e-03 9.993776e-01 -2.997584e-03 5.695853e-04 -3.449856e-04
4.000000e+09 5.763884e-04 -3.173709e-04 9.993676e-01 -3.071460e-03 9.993771e-01 -3.074395e-03 5.697644e-04 -3.538459e-04
4.100000e+09 5.765334e-04 -3.253280e-04 9.993671e-01 -3.148203e-03 9.993766e-01 -3.151202e-03 5.699479e-04 -3.627073e-04
4.200000e+09 5.766816e-04 -3.332868e-04 9.993666e-01 -3.224943e-03 9.993761e-01 -3.228006e-03 5.701356e-04 -3.715697e-04
4.300000e+09 5.768331e-04 -3.412473e-04 9.993662e-01 -3.301680e-03 9.993755e-01 -3.304806e-03 5.703276e-04 -3.804333e-04
4.400000e+09 5.769879e-04 -3.492096e-04 9.993657e-01 -3.378413e-03 9.993749e-01 -3.381601e-03 5.705240e-04 -3.892981e-04
4.500000e+09 5.771459e-04 -3.571736e-04 9.993651e-01 -3.455143e-03 9.993744e-01 -3.458393e-03 5.707246e-04 -3.981641e-04
4.600000e+09 5.773072e-04 -3.651394e-04 9.993646e-01 -3.531870e-03 9.993738e-01 -3.535180e-03 5.709294e-04 -4.070313e-04
4.700000e+09 5.774717e-04 -3.731071e-04 9.993641e-01 -3.608593e-03 9.993732e-01 -3.611964e-03 5.711385e-04 -4.158997e-04
4.800000e+09 5.776393e-04 -3.810767e-04 9.993635e-01 -3.685312e-03 9.993725e-01 -3.688742e-03 5.713518e-04 -4.247694e-04
4.900000e+09 5.778101e-04 -3.890482e-04 9.993630e-01 -3.762028e-03 9.993719e-01 -3.765517e-03 5.715693e-04 -4.336403e-04
5.000000e+09 5.779840e-04 -3.970217e-04 9.993624e-01 -3.838739e-03 9.993713e-01 -3.842287e-03 5.717910e-04 -4.425126e-04
5.100000e+09 5.781610e-04 -4.049972e-04 9.993618e-01 -3.915448e-03 9.993706e-01 -3.919052e-03 5.720168e-04 -4.513863e-04
5.200000e+09 5.783412e-04 -4.129748e-04 9.993612e-01 -3.992152e-03 9.993699e-01 -3.995813e-03 5.722468e-04 -4.602612e-04
5.300000e+09 5.785243e-04 -4.209544e-04 9.993606e-01 -4.068852e-03 9.993693e-01 -4.072569e-03 5.724809e-04 -4.691376e-04
5.400000e+09 5.787106e-04 -4.289361e-04 9.993600e-01 -4.145548e-03 9.993686e-01 -4.149320e-03 5.727191e-04 -4.780154e-04
5.500000e+09 5.788998e-04 -4.369199e-04 9.993594e-01 -4.222241e-03 9.993679e-01 -4.226066e-03 5.729614e-04 -4.868946e-04
5.600000e+09 5.790920e-04 -4.449060e-04 9.993588e-01 -4.298929e-03 9.993672e-01 -4.302808e-03 5.732078e-04 -4.957753e-04
5.700000e+09 5.792872e-04 -4.528942e-04 9.993581e-01 -4.375613e-03 9.993664e-01 -4.379544e-03 5.734583e-04 -5.046574e-04
5.800000e+09 5.794853e-04 -4.608847e-04 9.993575e-01 -4.452292e-03 9.993657e-01 -4.456275e-03 5.737127e-04 -5.135411e-04
5.900000e+09 5.796864e-04 -4.688775e-04 9.993568e-01 -4.528967e-03 9.993649e-01 -4.533001e-03 5.739712e-04 -5.224263e-04
6.000000e+09 5.798903e-04 -4.768726e-04 9.993561e-01 -4.605638e-03 9.993642e-01 -4.609722e-03 5.742336e-04 -5.313130e-04
6.100000e+09 5.800971e-04 -4.848701e-04 9.993554e-01 -4.682305e-03 9.993634e-01 -4.686437e-03 5.745000e-04 -5.402014e-04
6.200000e+09 5.803067e-04 -4.928699e-04 9.993547e-01 -4.758967e-03 9.993626e-01 -4.763147e-03 5.747704e-04 -5.490913e-04
6.300000e+09 5.805191e-04 -5.008722e-04 9.993540e-01 -4.835624e-03 9.993618e-01 -4.839851e-03 5.750447e-04 -5.579828e-04
6.400000e+09 5.807343e-04 -5.088769e-04 9.993533e-01 -4.912276e-03 9.993610e-01 -4.916550e-03 5.753228e-04 -5.668760e-04
6.500000e+09 5.809522e-04 -5.168841e-04 9.993526e-01 -4.988924e-03 9.993602e-01 -4.993243e-03 5.756049e-04 -5.757708e-04
6.600000e+09 5.811729e-04 -5.248938e-04 9.993518e-01 -5.065567e-03 9.993593e-01 -5.069931e-03 5.758908e-04 -5.846673e-04
6.700000e+09 5.813962e-04 -5.329061e-04 9.993511e-01 -5.142206e-03 9.993585e-01 -5.146612e-03 5.761806e-04 -5.935656e-04
6.800000e+09 5.816222e-04 -5.409209e-04 9.993503e-01 -5.218839e-03 9.993576e-01 -5.223288e-03 5.764741e-04 -6.024655e-04
6.900000e+09 5.818508e-04 -5.489384e-04 9.993496e-01 -5.295468e-03 9.993568e-01 -5.299958e-03 5.767714e-04 -6.113673e-04
7.000000e+09 5.820820e-04 -5.569585e-04 9.993488e-01 -5.372091e-03 9.993559e-01 -5.376622e-03 5.770725e-04 -6.202707e-04
7.100000e+09 5.823158e-04 -5.649812e-04 9.993480e-01 -5.448709e-03 9.993550e-01 -5.453280e-03 5.773774e-04 -6.291760e-04
7.200000e+09 5.825521e-04 -5.730067e-04 9.993472e-01 -5.525323e-03 9.993541e-01 -5.529932e-03 5.776859e-04 -6.380831e-04
7.300000e+09 5.827910e-04 -5.810349e-04 9.993464e-01 -5.601931e-03 9.993532e-01 -5.606577e-03 5.779981e-04 -6.469921e-04
7.400000e+09 5.830323e-04 -5.890659e-04 9.993456e-01 -5.678533e-03 9.993523e-01 -5.683216e-03 5.783140e-04 -6.559029e-04
7.500000e+09 5.832760e-04 -5.970996e-04 9.993447e-01 -5.755131e-03 9.993513e-01 -5.759849e-03 5.786336e-04 -6.648155e-04
7.600000e+09 5.835221e-04 -6.051362e-04 9.993439e-01 -5.831723e-03 9.993504e-01 -5.836476e-03 5.789567e-04 -6.737301e-04
7.700000e+09 5.837707e-04 -6.131756e-04 9.993430e-01 -5.908310e-03 9.993494e-01 -5.913096e-03 5.792835e-04 -6.826466e-04
7.800000e+09 5.840215e-04 -6.212180e-04 9.993422e-01 -5.984891e-03 9.993484e-01 -5.989710e-03 5.796137e-04 -6.915650e-04
7.900000e+09 5.842747e-04 -6.292632e-04 9.993413e-01 -6.061467e-03 9.993475e-01 -6.066317e-03 5.799476e-04 -7.004854e-04
8.000000e+09 5.845302e-04 -6.373114e-04 9.993404e-01 -6.138037e-03 9.993465e-01 -6.142917e-03 5.802849e-04 -7.094078e-04
8.100000e+09 5.847879e-04 -6.453625e-04 9.993395e-01 -6.214601e-03 9.993455e-01 -6.219511e-03 5.806257e-04 -7.183321e-04
8.200000e+09 5.850478e-04 -6.534166e-04 9.993386e-01 -6.291160e-03 9.993445e-01 -6.296098e-03 5.809700e-04 -7.272585e-04
8.300000e+09 5.853098e-04 -6.614738e-04 9.993377e-01 -6.367714e-03 9.993434e-01 -6.372678e-03 5.813177e-04 -7.361869e-04
8.400000e+09 5.855741e-04 -6.695340e-04 9.993368e-01 -6.444261e-03 9.993424e-01 -6.449252e-03 5.816688e-04 -7.451174e-04
8.500000e+09 5.858404e-04 -6.775972e-04 9.993358e-01 -6.520803e-03 9.993414e-01 -6.525818e-03 5.820233e-04 -7.540500e-04
8.600000e+09 5.861088e-04 -6.856636e-04 9.993349e-01 -6.597338e-03 9.993403e-01 -6.602378e-03 5.823811e-04 -7.629846e-04
8.700000e+09 5.863792e-04 -6.937331e-04 9.993339e-01 -6.673868e-03 9.993392e-01 -6.678930e-03 5.827422e-04 -7.719213e-04
8.800000e+09 5.866516e-04 -7.018057e-04 9.993330e-01 -6.750392e-03 9.993382e-01 -6.755476e-03 5.831066e-04 -7.808602e-04
8.900000e+09 5.869260e-04 -7.098816e-04 9.993320e-01 -6.826910e-03 9.993371e-01 -6.832014e-03 5.834743e-04 -7.898012e-04
9.000000e+09 5.872023e-04 -7.179606e-04 9.993310e-01 -6.903421e-03 9.993360e-01 -6.908545e-03 5.838452e-04 -7.987444e-04
9.100000e+09 5.874805e-04 -7.260428e-04 9.993300e-01 -6.979927e-03 9.993349e-01 -6.985069e-03 5.842194e-04 -8.076898e-04
9.200000e+09 5.877606e-04 -7.341283e-04 9.993290e-01 -7.056427e-03 9.993338e-01 -7.061586e-03 5.845966e-04 -8.166373e-04
9.300000e+09 5.880425e-04 -7.422171e-04 9.993280e-01 -7.132920e-03 9.993326e-01 -7.138095e-03 5.849771e-04 -8.255871e-04
9.400000e+09 5.883261e-04 -7.503092e-04 9.993270e-01 -7.209407e-03 9.993315e-01 -7.214597e-03 5.853606e-04 -8.345391e-04
9.500000e+09 5.886115e-04 -7.584046e-04 9.993260e-01 -7.285888e-03 9.993303e-01 -7.291091e-03 5.857473e-04 -8.434933e-04
9.600000e+09 5.888986e-04 -7.665033e-04 9.993249e-01 -7.362362e-03 9.993292e-01 -7.367579e-03 5.861369e-04 -8.524498e-04
9.700000e+09 5.891874e-04 -7.746054e-04 9.993239e-01 -7.438830e-03 9.993280e-01 -7.444058e-03 5.865296e-04 -8.614086e-04
9.800000e+09 5.894778e-04 -7.827109e-04 9.993228e-01 -7.515292e-03 9.993268e-01 -7.520530e-03 5.869254e-04 -8.703697e-04
9.900000e+09 5.897698e-04 -7.908197e-04 9.993218e-01 -7.591747e-03 9.993257e-01 -7.596995e-03 5.873240e-04 -8.793331e-04
1.000000e+10 5.900634e-04 -7.989321e-04 9.993207e-01 -7.668196e-03 9.993245e-01 -7.673451e-03 5.877256e-04 -8.882988e-04
1.010000e+10 5.903584e-04 -8.070478e-04 9.993196e-01 -7.744638e-03 9.993233e-01 -7.749900e-03 5.881301e-04 -8.972669e-04
1.020000e+10 5.906549e-04 -8.151671e-04 9.993185e-01 -7.821074e-03 9.993220e-01 -7.826342e-03 5.885375e-04 -9.062373e-04
1.030000e+10 5.909529e-04 -8.232898e-04 9.993174e-01 -7.897503e-03 9.993208e-01 -7.902775e-03 5.889477e-04 -9.152101e-04
1.040000e+10 5.912523e-04 -8.314161e-04 9.993163e-01 -7.973926e-03 9.993196e-01 -7.979201e-03 5.893608e-04 -9.241853e-04
1.050000e+10 5.915530e-04 -8.395458e-04 9.993152e-01 -8.050341e-03 9.993183e-01 -8.055619e-03 5.897766e-04 -9.331629e-04
1.060000e+10 5.918550e-04 -8.476792e-04 9.993141e-01 -8.126750e-03 9.993171e-01 -8.132030e-03 5.901951e-04 -9.421429e-04
1.070000e+10 5.921584e-04 -8.558161e-04 9.993129e-01 -8.203153e-03 9.993158e-01 -8.208432e-03 5.906164e-04 -9.511253e-04
1.080000e+10 5.924629e-04 -8.639565e-04 9.993118e-01 -8.279548e-03 9.993146e-01 -8.284826e-03 5.910404e-04 -9.601102e-04
1.090000e+10 5.927687e-04 -8.721006e-04 9.993106e-01 -8.355937e-03 9.993133e-01 -8.361213e-03 5.914670e-04 -9.690975e-04
1.100000e+10 5.930756e-04 -8.802483e-04 9.993095e-01 -8.432319e-03 9.993120e-01 -8.437591e-03 5.918962e-04 -9.780873e-04
1.110000e+10 5.933836e-04 -8.883997e-04 9.993083e-01 -8.508694e-03 9.993107e-01 -8.513961e-03 5.923280e-04 -9.870796e-04
1.120000e+10 5.936927e-04 -8.965547e-04 9.993071e-01 -8.585062e-03 9.993094e-01 -8.590323e-03 5.927623e-04 -9.960744e-04
1.130000e+10 5.940029e-04 -9.047134e-04 9.993059e-01 -8.661424e-03 9.993081e-01 -8.666678e-03 5.931992e-04 -1.005072e-03
1.140000e+10 5.943140e-04 -9.128758e-04 9.993047e-01 -8.737778e-03 9.993067e-01 -8.743024e-03 5.936386e-04 -1.014071e-03
1.150000e+10 5.946261e-04 -9.210418e-04 9.993035e-01 -8.814125e-03 9.993054e-01 -8.819362e-03 5.940804e-04 -1.023074e-03
1.160000e+10 5.949391e-04 -9.292116e-04 9.993023e-01 -8.890466e-03 9.993041e-01 -8.895691e-03 5.945247e-04 -1.032079e-03
1.170000e+10 5.952530e-04 -9.373852e-04 9.993011e-01 -8.966799e-03 9.993027e-01 -8.972013e-03 5.949713e-04 -1.041086e-03
1.180000e+10 5.955677e-04 -9.455625e-04 9.992999e-01 -9.043125e-03 9.993013e-01 -9.048326e-03 5.954203e-04 -1.050096e-03
1.190000e+10 5.958832e-04 -9.537435e-04 9.992986e-01 -9.119444e-03 9.993000e-01 -9.124631e-03 5.958716e-04 -1.059109e-03
1.200000e+10 5.961995e-04 -9.619283e-04 9.992974e-01 -9.195756e-03 9.992986e-01 -9.200928e-03 5.963253e-04 -1.068124e-03
1.210000e+10 5.965164e-04 -9.701170e-04 9.992961e-01 -9.272061e-03 9.992972e-01 -9.277217e-03 5.967811e-04 -1.077142e-03
1.220000e+10 5.968341e-04 -9.783094e-04 9.992949e-01 -9.348359e-03 9.992958e-01 -9.353497e-03 5.972392e-04 -1.086162e-03
1.230000e+10 5.971523e-04 -9.865057e-04 9.992936e-01 -9.424649e-03 9.992944e-01 -9.429769e-03 5.976995e-04 -1.095185e-03
1.240000e+10 5.974712e-04 -9.947057e-04 9.992923e-01 -9.500933e-03 9.992930e-01 -9.506032e-03 5.981619e-04 -1.104211e-03
1.250000e+10 5.977905e-04 -1.002910e-03 9.992910e-01 -9.577209e-03 9.992916e-01 -9.582287e-03 5.986265e-04 -1.113239e-03
1.260000e+10 5.981104e-04 -1.011117e-03 9.992897e-01 -9.653477e-03 9.992902e-01 -9.658534e-03 5.990931e-04 -1.122270e-03
1.270000e+10 5.984307e-04 -1.019329e-03 9.992884e-01 -9.729739e-03 9.992887e-01 -9.734773e-03 5.995618e-04 -1.131303e-03
1.280000e+10 5.987515e-04 -1.027545e-03 9.992871e-01 -9.805993e-03 9.992873e-01 -9.811002e-03 6.000326e-04 -1.140340e-03
1.290000e+10 5.990726e-04 -1.035764e-03 9.992858e-01 -9.882240e-03 9.992858e-01 -9.887224e-03 6.005053e-04 -1.149379e-03
1.300000e+10 5.993940e-04 -1.043987e-03 9.992845e-01 -9.958480e-03 9.992844e-01 -9.963437e-03 6.009799e-04 -1.158420e-03
1.310000e+10 5.997158e-04 -1.052215e-03 9.992831e-01 -1.003471e-02 9.992829e-01 -1.003964e-02 6.014565e-04 -1.167465e-03
1.320000e+10 6.000378e-04 -1.060446e-03 9.992818e-01 -1.011094e-02 9.992815e-01 -1.011584e-02 6.019350e-04 -1.176512e-03
1.330000e+10 6.003599e-04 -1.068681e-03 9.992805e-01 -1.018715e-02 9.992800e-01 -1.019203e-02 6.024153e-04 -1.185561e-03
1.340000e+10 6.006823e-04 -1.076920e-03 9.992791e-01 -1.026336e-02 9.992785e-01 -1.026820e-02 6.028974e-04 -1.194614e-03
1.350000e+10 6.010048e-04 -1.085163e-03 9.992777e-01 -1.033957e-02 9.992770e-01 -1.034438e-02 6.033813e-04 -1.203669e-03
1.360000e+10 6.013273e-04 -1.093410e-03 9.992764e-01 -1.041576e-02 9.992755e-01 -1.042054e-02 6.038670e-04 -1.212727e-03
1.370000e+10 6.016499e-04 -1.101660e-03 9.992750e-01 -1.049195e-02 9.992740e-01 -1.049669e-02 6.043543e-04 -1.221787e-03
1.380000e+10 6.019724e-04 -1.109915e-03 9.992736e-01 -1.056813e-02 9.992725e-01 -1.057284e-02 6.048433e-04 -1.230851e-03
1.390000e+10 6.022950e-04 -1.118174e-03 9.992722e-01 -1.064430e-02 9.992709e-01 -1.064897e-02 6.053340e-04 -1.239917e-03
1.400000e+10 6.026174e-04 -1.126437e-03 9.992708e-01 -1.072047e-02 9.992694e-01 -1.072510e-02 6.058263e-04 -1.248986e-03
1.410000e+10 6.029397e-04 -1.134704e-03 9.992694e-01 -1.079663e-02 9.992679e-01 -1.080122e-02 6.063202e-04 -1.258057e-03
1.420000e+10 6.032618e-04 -1.142974e-03 9.992680e-01 -1.087278e-02 9.992663e-01 -1.087733e-02 6.068155e-04 -1.267132e-03
1.430000e+10 6.035836e-04 -1.151249e-03 9.992666e-01 -1.094892e-02 9.992648e-01 -1.095343e-02 6.073124e-04 -1.276209e-03
1.440000e+10 6.039053e-04 -1.159528e-03 9.992651e-01 -1.102506e-02 9.992632e-01 -1.102953e-02 6.078108e-04 -1.285289e-03
1.450000e+10 6.042266e-04 -1.167811e-03 9.992637e-01 -1.110119e-02 9.992617e-01 -1.110561e-02 6.083106e-04 -1.294372e-03
1.460000e+10 6.045476e-04 -1.176097e-03 9.992623e-01 -1.117731e-02 9.992601e-01 -1.118169e-02 6.088118e-04 -1.303458e-03
1.470000e+10 6.048681e-04 -1.184388e-03 9.992608e-01 -1.125342e-02 9.992585e-01 -1.125776e-02 6.093143e-04 -1.312546e-03
1.480000e+10 6.051883e-04 -1.192683e-03 9.992594e-01 -1.132953e-02 9.992569e-01 -1.133382e-02 6.098182e-04 -1.321637e-03
1.490000e+10 6.055079e-04 -1.200982e-03 9.992579e-01 -1.140562e-02 9.992553e-01 -1.140987e-02 6.103234e-04 -1.330731e-03
1.500000e+10 6.058271e-04 -1.209285e-03 9.992564e-01 -1.148171e-02 9.992537e-01 -1.148591e-02 6.108298e-04 -1.339828e-03
1.510000e+10 6.061457e-04 -1.217592e-03 9.992549e-01 -1.155780e-02 9.992521e-01 -1.156195e-02 6.113375e-04 -1.348928e-03
1.520000e+10 6.064637e-04 -1.225903e-03 9.992535e-01 -1.163387e-02 9.992505e-01 -1.163797e-02 6.118463e-04 -1.358030e-03
1.530000e+10 6.067810e-04 -1.234218e-03 9.992520e-01 -1.170994e-02 9.992489e-01 -1.171399e-02 6.123563e-04 -1.367135e-03
1.540000e+10 6.070977e-04 -1.242537e-03 9.992505e-01 -1.178600e-02 9.992473e-01 -1.179000e-02 6.128674e-04 -1.376243e-03
1.550000e+10 6.074136e-04 -1.250860e-03 9.992490e-01 -1.186206e-02 9.992456e-01 -1.186600e-02 6.133797e-04 -1.385354e-03
1.560000e+10 6.077287e-04 -1.259187e-03 9.992475e-01 -1.193810e-02 9.992440e-01 -1.194199e-02 6.138929e-04 -1.394468e-03
1.570000e+10 6.080431e-04 -1.267518e-03 9.992459e-01 -1.201414e-02 9.992424e-01 -1.201797e-02 6.144072e-04 -1.403585e-03
1.580000e+10 6.083566e-04 -1.275853e-03 9.992444e-01 -1.209017e-02 9.992407e-01 -1.209395e-02 6.149224e-04 -1.412704e-03
1.590000e+10 6.086692e-04 -1.284192e-03 9.992429e-01 -1.216619e-02 9.992391e-01 -1.216992e-02 6.154386e-04 -1.421826e-03
1.600000e+10 6.089808e-04 -1.292535e-03 9.992414e-01 -1.224221e-02 9.992374e-01 -1.224587e-02 6.159557e-04 -1.430951e-03
1.610000e+10 6.092915e-04 -1.300882e-03 9.992398e-01 -1.231822e-02 9.992357e-01 -1.232182e-02 6.164737e-04 -1.440079e-03
1.620000e+10 6.096012e-04 -1.309234e-03 9.992383e-01 -1.239422e-02 9.992341e-01 -1.239776e-02 6.169925e-04 -1.449210e-03
1.630000e+10 6.099097e-04 -1.317589e-03 9.992367e-01 -1.247021e-02 9.992324e-01 -1.247370e-02 6.175122e-04 -1.458344e-03
1.640000e+10 6.102172e-04 -1.325948e-03 9.992352e-01 -1.254619e-02 9.992307e-01 -1.254962e-02 6.180326e-04 -1.467480e-03
