#   Hz   S  RI   R   50
!
0.0 -0.3258968348674102 0.0 0.6633551920219531 0.0 0.6632639910538829 0.0 0.6632404315613891 0.0 -0.32037382606985065 0.0 0.6577437136147755 0.0 0.6632403862566013 0.0 0.6575645346725785 0.0 -0.32045251932223373 0.0
100000000.0 -0.3258938232899174 0.00028839736610183285 0.6633453019325211 -0.0011024125179175846 0.6632553386906636 -0.0010847584764881403 0.6632328588530034 -0.0010807783556033694 -0.32033621957705694 0.0017349335845277434 0.6576982087899488 -0.0025440973084929178 0.6632328135096078 -0.0010807789657539786 0.657523926755561 -0.0025026457625136967 -0.3204125274565457 0.0017540596263651363
200000000.0 -0.3258847762496409 0.0005766035119922045 0.6633159448051075 -0.0022016904939695004 0.6632296650099452 -0.00216677510864862 0.6632103441120252 -0.0021593963103115573 -0.3202243332119541 0.0034596807291099774 0.6575630819928501 -0.00507437201441205 0.6632102986537657 -0.002159397519700185 0.6574031902655437 -0.004993811093928746 -0.3202936496642434 0.003496725863543396
300000000.0 -0.32586965808493407 0.0008644175131468514 0.6632680424277534 -0.003294837877723366 0.6631878026283267 -0.0032434391398508504 0.6631734870560891 -0.003233779239057011 -0.32004091596524736 0.005164453425945481 0.6573424113836792 -0.0075776353235408106 0.6631734414095345 -0.0032337810262831447 0.6572055273657886 -0.007462486129837792 -0.3200991134883863 0.00521709867760698
400000000.0 -0.32584841346848686 0.0011516196828094908 0.6632030740025678 -0.004379125594094278 0.6631310824020303 -0.004312391448335199 0.6631232533358119 -0.004302018396325609 -0.31979038646267804 0.006840231867144054 0.6570427199868101 -0.010041915214865294 0.663123207432059 -0.004302020730318529 0.6569360819346591 -0.009898568245818935 -0.3198340856056577 0.006905225212423815
500000000.0 -0.3258209732440648 0.0014379637409260443 0.6631229960717885 -0.005452201221145442 0.6630612543731484 -0.005371625431899291 0.6630609267554354 -0.005362440302544355 -0.3194786045111898 0.008479080366125024 0.6566725947907921 -0.012456944574652316 0.6630608805315549 -0.005362443143714027 0.6566016689633555 -0.012293235052584705 -0.3195053763256747 0.008552479891410126
600000000.0 -0.325787261990303 0.0017231706697330936 0.6630301407399339 -0.0065121732592823 0.6629803884415628 -0.006419561656498279 0.6629880480312148 -0.0064136615163136726 -0.3191125809541008 0.010074390577026648 0.6562422082945725 -0.014814522829618478 0.662988001431375 -0.0064136648179533035 0.6562104307655254 -0.014639231392134017 -0.31912106858169687 0.010151846212348478
700000000.0 -0.325747206800148 0.0020069245602039095 0.6629271006990491 -0.007557666185522099 0.6628907638945487 -0.007455092877136001 0.6629063448243434 -0.007454626379594394 -0.3187001502869135 0.011621041212353932 0.6557627865993252 -0.017108734789089728 0.6629062978005643 -0.007454630089439519 0.6557714488703597 -0.01693105751795561 -0.3186901057584299 0.011698087639578187
800000000.0 -0.32570074673468946 0.0022888705869457404 0.6628166098265845 -0.00858784542426338 0.6627947569492979 -0.00847759928398429 0.662817658033083 -0.008484626917223646 -0.31824963122522965 0.01311547192421631 0.6552460682452229 -0.01933602608937133 0.6628176105456074 -0.008484630979067953 0.6552943413504975 -0.019165055628298778 -0.318221872771131 0.013187807226183719
900000000.0 -0.3256478424363563 0.0025686150946076978 0.6627014273831455 -0.009602414017162613 0.6626947343649533 -0.009486936625828219 0.6627238690389183 -0.009503305558913072 -0.31776949825918405 0.014555676655922008 0.6547037926683383 -0.021495148164938124 0.6627238210562107 -0.009503309914185253 0.6547888727989118 -0.02133940093465675 -0.3177258006488113 0.014619406151370182
1000000000.0 -0.3255884854564616 0.0028457276544758166 0.6625842323445438 -0.010601584822359598 0.6625929593118977 -0.010483401872697036 0.6626268318861765 -0.010510642559729758 -0.3172680829058721 0.015941127675037345 0.6541472481029463 -0.02358699538747753 0.6626267833845846 -0.010510647148945748 0.654264599078242 -0.023454010410344017 -0.3172110178054397 0.015992958938470664
1100000000.0 -0.32552270694869945 0.003119744866279828 0.6624675324899927 -0.011586033353282989 0.6624915134668796 -0.011467682161186763 0.6625283133911029 -0.011506930822018013 -0.3167533178332642 0.01727264519265893 0.6535868980071718 -0.025614362243915473 0.6625282643542333 -0.011506935586038694 0.6537305624444454 -0.025510386717968757 -0.31668606278643574 0.017310027202896594
1200000000.0 -0.32545058548532496 0.0033901756398730565 0.6623535908659868 -0.012556836868153308 0.6623922371209796 -0.01244079296904489 0.6624299430918759 -0.012492741239950648 -0.3162325312251326 0.018552228921859343 0.6530320945189587 -0.027581649406286653 0.6624298935097498 -0.012492746120993119 0.6531950458148389 -0.02751141651949661 -0.31615866501259376 0.018573434550949664
1300000000.0 -0.32537225385034363 0.0036565076900756965 0.6622443704237282 -0.013515405151684081 0.6622966872314474 -0.013404010971636765 0.6623331739120603 -0.01346888173268646 -0.31571229346386787 0.019782867441425624 0.6524908784461472 -0.02949454515523295 0.6623331237801153 -0.01346888667505515 0.6526653887263282 -0.029461141795768604 -0.3156355929934362 0.019787023390305185
1400000000.0 -0.32528790474245334 0.003918215006564033 0.6621414961656855 -0.014463407770289578 0.6622061119794199 -0.014358806085703193 0.6622392535238592 -0.014436352881467794 -0.3151983139408869 0.02096833932416839 0.6519698586385654 -0.03135970403068354 0.6622392028418751 -0.014436357831989571 0.6521478625200806 -0.03136452055294006 -0.31512256425387164 0.02095541083504413
1500000000.0 -0.3251977953729608 0.004174766107939856 0.6620462331163802 -0.015402701633476856 0.6621214395563413 -0.015306776049444155 0.6621492057255173 -0.015396302637742014 -0.31469538279978876 0.02211301724063357 0.6514741594892511 -0.03318443897470033 0.6621491544965258 -0.015396307545904712 0.6516475987739551 -0.033227190055548694 -0.3146242079737423 0.02208375650660959
1600000000.0 -0.3251022509684579 0.004425632943522147 0.6619594778544995 -0.016335261642945794 0.662043278546638 -0.016249585725102926 0.6620638207078646 -0.016349982021232747 -0.3142073506784537 0.023221683190034856 0.6510074235456472 -0.03497643757886831 0.662063768937115 -0.016349986839039876 0.6511685629869658 -0.03505524212843678 -0.31414406990827715 0.02317755060445479
1700000000.0 -0.3250016671864799 0.004670300357778244 0.6618817611517633 -0.017263116203802265 0.6619719273048282 -0.017188912282970398 0.6619836528637523 -0.017298703162484653 -0.3137371388832583 0.024299360057867477 0.650571856308347 -0.03674350803522613 0.661983600557786 -0.017298707844048834 0.6507135648116402 -0.03685501660713648 -0.3136846491727751 0.024242426675061914
1800000000.0 -0.3248965114290662 0.004908276072537615 0.661813259371723 -0.01818828850801499 0.6619073900243675 -0.01812639661473686 0.6619090247550949 -0.018243800526240667 -0.3132867726550874 0.02535116213336711 0.6501683016914792 -0.03849335640190406 0.6619089719209804 -0.018243805027147272 0.6502842964379835 -0.038632916020730636 -0.313247457501248 0.025284000342401077
1900000000.0 -0.32478732300000096 0.0051391011653939365 0.6617538125931508 -0.01911274383240645 0.6618493976503032 -0.019063600759029697 0.6618400359496759 -0.019186595719934415 -0.31285743100274793 0.02638216518902766 0.6497963387746878 -0.040233393972602435 0.6618399825944462 -0.019186599996412836 0.6498813917358583 -0.040395242241252405 -0.31283309320977865 0.02630773298200917
2000000000.0 -0.32467471200318354 0.005362361025304781 0.6617029478481591 -0.020038342639224552 0.6617974323027145 -0.020001970796348804 0.6617765756266148 -0.020128365965299943 -0.3124495077348618 0.027397295273743124 0.6494543929382731 -0.041970571849615015 0.6617765217569448 -0.02012836997324533 0.649504500162267 -0.042148054184714435 -0.31244132396449203 0.027318817895382097
2100000000.0 -0.32455935682889436 0.005577696746468489 0.6616599063293327 -0.02096679901822071 0.6617507543799459 -0.02094280455634076 0.6617183380828924 -0.021070316094611612 -0.3120626796096478 0.028401234473477144 0.6491398568963191 -0.04371123912727078 0.6617182837050448 -0.021070319788503832 0.6491523709878131 -0.043897044670290965 -0.3120711743122355 0.028322085863278383
2200000000.0 -0.32444200002853785 0.005784816878744882 0.661623673864064 -0.021899643941096083 0.6617084319476235 -0.0218872235389173 0.6616648405180992 -0.02201355381954578 -0.31169597878754174 0.029398341478903897 0.6488492192870599 -0.04546102121291606 0.6616647856381632 -0.022013557151317847 0.648822944902551 -0.04564743415429064 -0.31172101560345117 0.029321926883249593
2300000000.0 -0.324323442343661 0.005983509388208091 0.6615930143349168 -0.022838192880051362 0.6616693723565539 -0.02283614864031268 0.6616154427032812 -0.022959067996711244 -0.31134786790613483 0.030392584779281674 0.6485782001888809 -0.04722471555054959 0.661615387327718 -0.022959070914622043 0.6485134513904406 -0.047403879148293804 -0.3113886573128718 0.030322225280238507
2400000000.0 -0.3242045346384067 0.006173653597330618 0.6615665060119756 -0.023783517536666656 0.6616323562475074 -0.023790279554092807 0.6615693683322518 -0.023907709662762445 -0.3110163170309821 0.03138748658316051 0.6483218941087743 -0.04900620317833492 0.6615693124687586 -0.023907712110333854 0.6482205113235435 -0.04917039359317733 -0.3110714397844027 0.031326306081036925
2500000000.0 -0.32408616749288455 0.006355231774872609 0.6615425809364798 -0.0247364216991638 0.6615960741804994 -0.024750078044397834 0.6615257279959843 -0.024860175715532635 -0.31069888242874477 0.03238607606087427 0.6480749215842867 -0.05080837596548127 0.6615256716546747 -0.024860177630615526 0.6479402449652674 -0.0509502821815282 -0.31076632906383855 0.032336891439357904
2600000000.0 -0.3239692582545514 0.006528339936844119 0.6615195675421396 -0.025697421558468582 0.6615591660647021 -0.025715755623216256 0.6614835438035571 -0.025816995257192166 -0.3103927875400361 0.03339085112935647 0.6478315905276257 -0.052633080862074036 0.6614834869984493 -0.025816996571227713 0.6476683859542346 -0.05274608549309344 -0.3104700147293423 0.033356066875433944
2700000000.0 -0.3238547354211091 0.0066931973102905 0.6614957366157718 -0.026666731128611447 0.6615202633645579 -0.02668726646284306 0.6614417756912665 -0.026778518772267165 -0.3100950066915051 0.03440374868063897 0.647586067828297 -0.0544810838823371 0.6614417184420531 -0.026778519409815085 0.6474004018534584 -0.05455953772707009 -0.3101790114933544 0.034385258046075944
2800000000.0 -0.3237435203453716 0.0068501538119889105 0.6614693504841491 -0.02764425369556661 0.6614780337295674 -0.027664306594998824 0.6613993494134265 -0.0277449104683418 -0.3098023519848934 0.03542612381880862 0.6473325605604504 -0.05635205764837341 0.6613992917474968 -0.027744910346944766 0.6471316214981042 -0.05639153867696455 -0.3098897648559343 0.03542521958370254
2900000000.0 -0.32363650641099617 0.00699969481770488 0.6614387149802983 -0.02862958042003008 0.6614312272638964 -0.028646320545611864 0.6613551860961597 -0.02871614424095195 -0.30951156345199043 0.036458739244969646 0.64706550450166 -0.05824459696789128 0.661355128050815 -0.02871614327140615 0.6468573686846624 -0.058242142293100076 -0.30959876028571204 0.03647603813277448
3000000000.0 -0.3235345360246623 0.007142442459506036 0.6614022333124505 -0.029621997303718058 0.6613787231568704 -0.029632516489410253 0.6613082330660098 -0.029692003816986827 -0.30921940200054654 0.037501766346050125 0.6467797557085102 -0.060156266938636384 0.6613081746908055 -0.029692001904081847 0.6465731007661626 -0.06011056461029962 -0.30930263436680466 0.037537151971598195
3100000000.0 -0.32343837599678826 0.007279152704383309 0.6613584604687435 -0.030620501659307523 0.6613195748926719 -0.03062189075213985 0.6612574954505661 -0.030672087664071535 -0.30892274394802594 0.03855479973553862 0.6464707788237949 -0.0620836873330208 0.6612574368096948 -0.030672084707852366 0.6462745495353261 -0.06199521388716431 -0.3089982851885995 0.03860738945489322
3200000000.0 -0.3233486921244411 0.007410707551375695 0.6613061562909369 -0.03162382897423055 0.6612530518173881 -0.03161326202985623 0.6612020678068584 -0.031655819210531115 -0.3086186751198382 0.03961688690744648 0.6461348238837483 -0.06402265545446094 0.6612020089814671 -0.03165581510812214 0.6459578605080811 -0.06389374543129765 -0.3086829781149454 0.03968502789772952
3300000000.0 -0.32326602402575083 0.0075381018469523236 0.6612443349041387 -0.032630490617034706 0.6611786745424038 -0.03260531505007901 0.6611411647894656 -0.03264246278997267 -0.30830458167011393 0.04068657426362489 0.6457690819643754 -0.06596830730720772 0.6611411058797912 -0.03264245743798057 0.6456197255146826 -0.06580314272889547 -0.3083544421205186 0.04076787344387788
3400000000.0 -0.3231907614783636 0.007662424463294909 0.66117230786741 -0.03363882221311513 0.6610962415806301 -0.0335966526162288 0.6610741496539271 -0.033631145502041576 -0.30797823407668534 0.04176197005375609 0.645371809366454 -0.06791531394310532 0.6610740907811214 -0.0336311387995316 0.645257502538661 -0.06771982516536129 -0.30801095130281964 0.041853360985628245
3500000000.0 -0.323123123655646 0.007784833905655571 0.6610897182820754 -0.03464704175256904 0.6610058448048425 -0.03458585413446804 0.6610005592348837 -0.03462088487236942 -0.30763786028469137 0.04284082376110172 0.6449424104473731 -0.06985810653180884 0.6610005005423931 -0.03462087672437856 0.6448693161938422 -0.06963978088846247 -0.30765138612583676 0.042938671464255194
3600000000.0 -0.3230631427041481 0.007906528796138118 0.6609965632181405 -0.03565331565320504 0.6609078718123066 -0.035571537926239356 0.6609201239745919 -0.03561062181800802 -0.3072822038329562 0.043920620254308734 0.6444814708080369 -0.07179112044634264 0.6609200656289614 -0.035610612139528 0.6444541322537817 -0.07155872136967759 -0.30727526953020545 0.04402086208281281
3700000000.0 -0.3230106530400593 0.008028714093288652 0.6608932022274402 -0.03665583017690174 0.6608029940598071 -0.03655242399731908 0.6608327816327015 -0.03659925801002298 -0.306910563073646 0.04499868572795316 0.6439907353118799 -0.07370904592471836 0.6608327238236833 -0.03659924673035217 0.6440118003514886 -0.0734722521693607 -0.3068827742756888 0.04509700335106687
3800000000.0 -0.32296528754678316 0.008152564310918872 0.6607803504025729 -0.037652864892146504 0.6606921406323976 -0.037527393573410464 0.6607386834985879 -0.037585696313395395 -0.3065228083215194 0.0460723012256224 0.6434730291355076 -0.07560707110647917 0.660738626438455 -0.037585683380730615 0.6435430603752552 -0.07537605255697845 -0.30647469968385416 0.04616431570650037
3900000000.0 -0.3229264815307264 0.008279185350531544 0.6606590553692834 -0.03864286439305906 0.6605764586183048 -0.038495541701100006 0.6606381922538673 -0.03856888262362336 -0.30611937491635416 0.047138818544854195 0.6429321243311297 -0.07748110279409119 0.6606381361758602 -0.038568868009734775 0.6430495101248318 -0.07726605523764259 -0.30605241813871337 0.0472202979246591
4000000000.0 -0.3228934848553486 0.008409576814327996 0.6605306586823614 -0.03962450430973203 0.6604572621442728 -0.039456219580364424 0.6605318710776473 -0.03954784715744637 -0.30570123165789925 0.048195772714648775 0.6423725586980055 -0.07932795131721095 0.6605318162335163 -0.039547830862261525 0.6425335342856086 -0.07913861671538776 -0.3056177940187583 0.048262839770468316
4100000000.0 -0.3228653821592246 0.008544596781719647 0.660396743215849 -0.04059674782449413 0.6603359730387425 -0.040409064011349 0.6604204641151631 -0.04052174313293477 -0.3052698257267785 0.04924098512334639 0.6417994175538527 -0.08114546832181108 0.6604204107718097 -0.04052172518885122 0.641998197467426 -0.08099066893049957 -0.30517307987721765 0.0492903123577194
4200000000.0 -0.3228411205208463 0.008684930987225338 0.6602590691678669 -0.04155888944415531 0.6602140567155531 -0.041354012318502165 0.6603048689913645 -0.04148988081830575 -0.30482700685040315 0.050272651803013595 0.6412180917733012 -0.08293262987980803 0.6603048174266251 -0.04148986129404813 0.6414471066324549 -0.08281984378196079 -0.30472079637886085 0.05030163136222759
4300000000.0 -0.32281954341748287 0.008831068126476292 0.6601195021163307 -0.04251058361900523 0.6600929571337961 -0.042291302233239084 0.6601861025860798 -0.04245175514574717 -0.3043749349162895 0.05128941231570498 0.6406340268830046 -0.0846895615568415 0.6601860530837381 -0.042451734149603716 0.6408842503985984 -0.08462456390342277 -0.30426360353216686 0.051296290357521625
4400000000.0 -0.3227994293931539 0.008983282656150025 0.6599799370699868 -0.043451856850847265 0.6599740345733202 -0.043221457328841514 0.6600652617383141 -0.04340706546027177 -0.3039159763078521 0.052290396033560914 0.6400524779532749 -0.0864175064370612 0.6600652145824555 -0.043407043142563904 0.6403138242002904 -0.0864040954061556 -0.3038041710236833 0.052274363831185014
4500000000.0 -0.3227795335479568 0.00914162597918949 0.6598422226093418 -0.04438310307187137 0.6598585095113867 -0.044145259574643575 0.6599434808650128 -0.04435572646730136 -0.3034525948251764 0.053275244199097634 0.6394782836136532 -0.0881187410505062 0.6599434363338729 -0.044355703021969846 0.6397400509624476 -0.08815856095933486 -0.303345054986125 0.05323648160778191
4600000000.0 -0.322758629817191 0.00930592636937509 0.6597080890051751 -0.0453050631735504 0.6597474151813657 -0.04506371130951088 0.6598218886326124 -0.04529787000390928 -0.3029872431120905 0.054244107806602965 0.6389156700452254 -0.0897964472559696 0.6598218469920762 -0.04529784566913826 0.6391670067598185 -0.08988891423858347 -0.3028885874402331 0.05418377820657541
4700000000.0 -0.3227355520325385 0.009475797446592988 0.6595790836876942 -0.046218790504150106 0.6596415605527712 -0.0459779893726281 0.6597015657978449 -0.04623383782777229 -0.30252226007211147 0.05519762287654711 0.6383680926851761 -0.09145455014596304 0.6597015272947715 -0.04623381288560614 0.6385984599755838 -0.0915968791493194 -0.30243678314396966 0.05511782193586948
4800000000.0 -0.32270923193609574 0.009650654521036762 0.6594565167027874 -0.047125604850603714 0.6595415046101867 -0.04688939426782649 0.6595835061501124 -0.04716416613726132 -0.30205977891391916 0.056136865951612 0.6378381200701427 -0.09309753289776034 0.6595834710056512 -0.04716414091220726 0.6380377309179452 -0.0932848590976786 -0.3019912668929181 0.056040529205413324
4900000000.0 -0.3226787326202532 0.009829737725856188 0.6593414179382442 -0.048027037832743015 0.6594475420272922 -0.0477992971140786 0.659468582172888 -0.04808956295857723 -0.3016016493581921 0.05706329352766011 0.637327361147876 -0.09473023930451695 0.6594685505759474 -0.048089537815213364 0.6374875769372325 -0.09495582280664723 -0.3015532226617473 0.05695406965180108
5000000000.0 -0.32264327624913675 0.01001214058217643 0.6592345070377548 -0.04892477276516877 0.6593596997019675 -0.048709086816416586 0.6593575166405289 -0.049010879830647655 -0.30114937631350136 0.05797866960920854 0.6368364348003875 -0.09635767371586647 0.6593574887415374 -0.04901085517028691 0.6369501060581768 -0.09661317372736347 -0.30112336453142313 0.057860767319070694
5100000000.0 -0.32260226533293485 0.01019684249840588 0.659136176134125 -0.04982058192071595 0.659277743174881 -0.04962011945840728 0.659250860928961 -0.049929079373995246 -0.30070407613154 0.05888498566749148 0.636364978414107 -0.09798480659370722 0.659250836834045 -0.04992905563046666 0.6364267202261387 -0.09826061003433655 -0.3007019282197893 0.058763002459717835
5200000000.0 -0.32255529723006154 0.010382743690332884 0.6590464848894989 -0.05071626382059025 0.6592011916995563 -0.05053367144736339 0.659148980390805 -0.050845200352344064 -0.3002664504943382 0.05978437704515668 0.6359116911424745 -0.0996163921459491 0.6591489601564863 -0.05084517798696823 0.6359180876315542 -0.09990198164362839 -0.30028868126658603 0.059663117673344236
