#   Hz   S  RI   R   50
!
0.000000e+00 1.874630e-03 0.000000e+00 9.981208e-01 0.000000e+00 9.981125e-01 0.000000e+00 1.882302e-03 0.000000e+00
1.000000e+08 1.874645e-03 2.315646e-05 9.981207e-01 -2.106864e-04 9.981125e-01 -2.105986e-04 1.882326e-03 2.320259e-05
2.000000e+08 1.874688e-03 4.631265e-05 9.981206e-01 -4.213724e-04 9.981124e-01 -4.211968e-04 1.882399e-03 4.640489e-05
3.000000e+08 1.874759e-03 6.946832e-05 9.981204e-01 -6.320576e-04 9.981122e-01 -6.317942e-04 1.882520e-03 6.960661e-05
4.000000e+08 1.874860e-03 9.262321e-05 9.981201e-01 -8.427415e-04 9.981119e-01 -8.423904e-04 1.882689e-03 9.280745e-05
5.000000e+08 1.874989e-03 1.157771e-04 9.981198e-01 -1.053424e-03 9.981115e-01 -1.052985e-03 1.882907e-03 1.160071e-04
6.000000e+08 1.875146e-03 1.389296e-04 9.981193e-01 -1.264104e-03 9.981111e-01 -1.263578e-03 1.883173e-03 1.392053e-04
7.000000e+08 1.875333e-03 1.620806e-04 9.981188e-01 -1.474782e-03 9.981106e-01 -1.474168e-03 1.883488e-03 1.624018e-04
8.000000e+08 1.875548e-03 1.852297e-04 9.981182e-01 -1.685457e-03 9.981100e-01 -1.684756e-03 1.883851e-03 1.855963e-04
9.000000e+08 1.875791e-03 2.083767e-04 9.981175e-01 -1.896128e-03 9.981093e-01 -1.895340e-03 1.884262e-03 2.087884e-04
1.000000e+09 1.876063e-03 2.315214e-04 9.981167e-01 -2.106796e-03 9.981085e-01 -2.105921e-03 1.884722e-03 2.319779e-04
1.100000e+09 1.876364e-03 2.546635e-04 9.981159e-01 -2.317459e-03 9.981077e-01 -2.316498e-03 1.885229e-03 2.551645e-04
1.200000e+09 1.876693e-03 2.778028e-04 9.981149e-01 -2.528119e-03 9.981068e-01 -2.527070e-03 1.885785e-03 2.783479e-04
1.300000e+09 1.877051e-03 3.009388e-04 9.981139e-01 -2.738773e-03 9.981058e-01 -2.737638e-03 1.886390e-03 3.015278e-04
1.400000e+09 1.877437e-03 3.240715e-04 9.981128e-01 -2.949421e-03 9.981047e-01 -2.948201e-03 1.887042e-03 3.247039e-04
1.500000e+09 1.877851e-03 3.472006e-04 9.981117e-01 -3.160064e-03 9.981036e-01 -3.158758e-03 1.887743e-03 3.478760e-04
1.600000e+09 1.878294e-03 3.703258e-04 9.981104e-01 -3.370701e-03 9.981023e-01 -3.369309e-03 1.888491e-03 3.710437e-04
1.700000e+09 1.878765e-03 3.934467e-04 9.981091e-01 -3.581331e-03 9.981010e-01 -3.579854e-03 1.889288e-03 3.942068e-04
1.800000e+09 1.879265e-03 4.165633e-04 9.981077e-01 -3.791955e-03 9.980996e-01 -3.790392e-03 1.890132e-03 4.173649e-04
1.900000e+09 1.879793e-03 4.396752e-04 9.981062e-01 -4.002570e-03 9.980982e-01 -4.000924e-03 1.891025e-03 4.405179e-04
2.000000e+09 1.880348e-03 4.627822e-04 9.981046e-01 -4.213178e-03 9.980966e-01 -4.211447e-03 1.891966e-03 4.636654e-04
2.100000e+09 1.880933e-03 4.858840e-04 9.981029e-01 -4.423778e-03 9.980950e-01 -4.421963e-03 1.892954e-03 4.868070e-04
2.200000e+09 1.881545e-03 5.089803e-04 9.981012e-01 -4.634369e-03 9.980933e-01 -4.632471e-03 1.893990e-03 5.099427e-04
2.300000e+09 1.882185e-03 5.320709e-04 9.980994e-01 -4.844951e-03 9.980915e-01 -4.842970e-03 1.895074e-03 5.330719e-04
2.400000e+09 1.882853e-03 5.551556e-04 9.980975e-01 -5.055524e-03 9.980896e-01 -5.053460e-03 1.896205e-03 5.561946e-04
2.500000e+09 1.883549e-03 5.782341e-04 9.980955e-01 -5.266087e-03 9.980877e-01 -5.263941e-03 1.897384e-03 5.793103e-04
2.600000e+09 1.884273e-03 6.013061e-04 9.980935e-01 -5.476640e-03 9.980857e-01 -5.474412e-03 1.898610e-03 6.024189e-04
2.700000e+09 1.885025e-03 6.243715e-04 9.980913e-01 -5.687182e-03 9.980836e-01 -5.684873e-03 1.899884e-03 6.255200e-04
2.800000e+09 1.885804e-03 6.474298e-04 9.980891e-01 -5.897713e-03 9.980814e-01 -5.895324e-03 1.901206e-03 6.486133e-04
2.900000e+09 1.886611e-03 6.704810e-04 9.980868e-01 -6.108232e-03 9.980791e-01 -6.105763e-03 1.902574e-03 6.716986e-04
3.000000e+09 1.887445e-03 6.935247e-04 9.980844e-01 -6.318740e-03 9.980768e-01 -6.316192e-03 1.903990e-03 6.947757e-04
3.100000e+09 1.888307e-03 7.165608e-04 9.980820e-01 -6.529236e-03 9.980744e-01 -6.526608e-03 1.905452e-03 7.178441e-04
3.200000e+09 1.889197e-03 7.395888e-04 9.980795e-01 -6.739719e-03 9.980719e-01 -6.737013e-03 1.906962e-03 7.409037e-04
3.300000e+09 1.890114e-03 7.626087e-04 9.980769e-01 -6.950189e-03 9.980693e-01 -6.947405e-03 1.908519e-03 7.639541e-04
3.400000e+09 1.891058e-03 7.856202e-04 9.980742e-01 -7.160646e-03 9.980667e-01 -7.157785e-03 1.910122e-03 7.869952e-04
3.500000e+09 1.892029e-03 8.086229e-04 9.980714e-01 -7.371089e-03 9.980640e-01 -7.368151e-03 1.911773e-03 8.100266e-04
3.600000e+09 1.893027e-03 8.316168e-04 9.980686e-01 -7.581518e-03 9.980612e-01 -7.578504e-03 1.913470e-03 8.330480e-04
3.700000e+09 1.894052e-03 8.546014e-04 9.980656e-01 -7.791933e-03 9.980583e-01 -7.788844e-03 1.915213e-03 8.560593e-04
3.800000e+09 1.895104e-03 8.775767e-04 9.980626e-01 -8.002332e-03 9.980553e-01 -7.999169e-03 1.917003e-03 8.790600e-04
3.900000e+09 1.896182e-03 9.005423e-04 9.980595e-01 -8.212717e-03 9.980523e-01 -8.209479e-03 1.918839e-03 9.020501e-04
4.000000e+09 1.897288e-03 9.234981e-04 9.980564e-01 -8.423085e-03 9.980492e-01 -8.419775e-03 1.920721e-03 9.250291e-04
4.100000e+09 1.898420e-03 9.464437e-04 9.980532e-01 -8.633438e-03 9.980460e-01 -8.630055e-03 1.922649e-03 9.479968e-04
4.200000e+09 1.899578e-03 9.693790e-04 9.980498e-01 -8.843775e-03 9.980428e-01 -8.840320e-03 1.924624e-03 9.709530e-04
4.300000e+09 1.900763e-03 9.923037e-04 9.980464e-01 -9.054095e-03 9.980394e-01 -9.050569e-03 1.926644e-03 9.938974e-04
4.400000e+09 1.901973e-03 1.015218e-03 9.980430e-01 -9.264397e-03 9.980360e-01 -9.260802e-03 1.928710e-03 1.016830e-03
4.500000e+09 1.903210e-03 1.038120e-03 9.980394e-01 -9.474683e-03 9.980325e-01 -9.471018e-03 1.930822e-03 1.039750e-03
4.600000e+09 1.904474e-03 1.061012e-03 9.980358e-01 -9.684950e-03 9.980290e-01 -9.681216e-03 1.932979e-03 1.062657e-03
4.700000e+09 1.905762e-03 1.083892e-03 9.980321e-01 -9.895199e-03 9.980253e-01 -9.891398e-03 1.935181e-03 1.085552e-03
4.800000e+09 1.907077e-03 1.106760e-03 9.980283e-01 -1.010543e-02 9.980216e-01 -1.010156e-02 1.937429e-03 1.108433e-03
4.900000e+09 1.908417e-03 1.129617e-03 9.980245e-01 -1.031564e-02 9.980178e-01 -1.031171e-02 1.939721e-03 1.131302e-03
5.000000e+09 1.909783e-03 1.152461e-03 9.980206e-01 -1.052583e-02 9.980140e-01 -1.052184e-02 1.942059e-03 1.154156e-03
5.100000e+09 1.911175e-03 1.175292e-03 9.980166e-01 -1.073601e-02 9.980100e-01 -1.073194e-02 1.944442e-03 1.176997e-03
5.200000e+09 1.912591e-03 1.198112e-03 9.980125e-01 -1.094616e-02 9.980060e-01 -1.094203e-02 1.946869e-03 1.199824e-03
5.300000e+09 1.914033e-03 1.220918e-03 9.980083e-01 -1.115629e-02 9.980019e-01 -1.115210e-02 1.949340e-03 1.222636e-03
5.400000e+09 1.915499e-03 1.243711e-03 9.980041e-01 -1.136641e-02 9.979977e-01 -1.136216e-02 1.951857e-03 1.245434e-03
5.500000e+09 1.916991e-03 1.266491e-03 9.979998e-01 -1.157650e-02 9.979935e-01 -1.157219e-02 1.954417e-03 1.268217e-03
5.600000e+09 1.918507e-03 1.289257e-03 9.979954e-01 -1.178657e-02 9.979892e-01 -1.178220e-02 1.957021e-03 1.290985e-03
5.700000e+09 1.920048e-03 1.312010e-03 9.979910e-01 -1.199662e-02 9.979848e-01 -1.199219e-02 1.959670e-03 1.313738e-03
5.800000e+09 1.921613e-03 1.334749e-03 9.979864e-01 -1.220664e-02 9.979804e-01 -1.220216e-02 1.962362e-03 1.336475e-03
5.900000e+09 1.923203e-03 1.357473e-03 9.979818e-01 -1.241665e-02 9.979758e-01 -1.241210e-02 1.965098e-03 1.359196e-03
6.000000e+09 1.924817e-03 1.380183e-03 9.979771e-01 -1.262663e-02 9.979712e-01 -1.262203e-02 1.967877e-03 1.381902e-03
6.100000e+09 1.926454e-03 1.402879e-03 9.979724e-01 -1.283659e-02 9.979665e-01 -1.283194e-02 1.970700e-03 1.404591e-03
6.200000e+09 1.928116e-03 1.425560e-03 9.979676e-01 -1.304653e-02 9.979618e-01 -1.304182e-02 1.973566e-03 1.427264e-03
6.300000e+09 1.929802e-03 1.448226e-03 9.979627e-01 -1.325644e-02 9.979570e-01 -1.325168e-02 1.976475e-03 1.449920e-03
6.400000e+09 1.931511e-03 1.470877e-03 9.979577e-01 -1.346633e-02 9.979521e-01 -1.346151e-02 1.979426e-03 1.472559e-03
6.500000e+09 1.933243e-03 1.493512e-03 9.979527e-01 -1.367619e-02 9.979471e-01 -1.367133e-02 1.982420e-03 1.495181e-03
6.600000e+09 1.934999e-03 1.516132e-03 9.979475e-01 -1.388603e-02 9.979421e-01 -1.388112e-02 1.985457e-03 1.517786e-03
6.700000e+09 1.936777e-03 1.538736e-03 9.979423e-01 -1.409585e-02 9.979370e-01 -1.409089e-02 1.988536e-03 1.540373e-03
6.800000e+09 1.938579e-03 1.561324e-03 9.979371e-01 -1.430564e-02 9.979318e-01 -1.430063e-02 1.991657e-03 1.562942e-03
6.900000e+09 1.940403e-03 1.583896e-03 9.979318e-01 -1.451541e-02 9.979265e-01 -1.451035e-02 1.994821e-03 1.585493e-03
7.000000e+09 1.942250e-03 1.606452e-03 9.979263e-01 -1.472514e-02 9.979212e-01 -1.472004e-02 1.998026e-03 1.608027e-03
7.100000e+09 1.944120e-03 1.628991e-03 9.979209e-01 -1.493486e-02 9.979158e-01 -1.492971e-02 2.001272e-03 1.630541e-03
7.200000e+09 1.946012e-03 1.651514e-03 9.979153e-01 -1.514455e-02 9.979103e-01 -1.513936e-02 2.004560e-03 1.653037e-03
7.300000e+09 1.947926e-03 1.674019e-03 9.979097e-01 -1.535421e-02 9.979048e-01 -1.534898e-02 2.007889e-03 1.675514e-03
7.400000e+09 1.949861e-03 1.696508e-03 9.979040e-01 -1.556384e-02 9.978992e-01 -1.555857e-02 2.011259e-03 1.697973e-03
7.500000e+09 1.951819e-03 1.718979e-03 9.978983e-01 -1.577345e-02 9.978935e-01 -1.576814e-02 2.014670e-03 1.720411e-03
7.600000e+09 1.953798e-03 1.741432e-03 9.978924e-01 -1.598303e-02 9.978878e-01 -1.597768e-02 2.018122e-03 1.742831e-03
7.700000e+09 1.955799e-03 1.763869e-03 9.978865e-01 -1.619258e-02 9.978820e-01 -1.618720e-02 2.021614e-03 1.765231e-03
7.800000e+09 1.957821e-03 1.786287e-03 9.978806e-01 -1.640211e-02 9.978761e-01 -1.639669e-02 2.025147e-03 1.787611e-03
7.900000e+09 1.959864e-03 1.808687e-03 9.978745e-01 -1.661161e-02 9.978701e-01 -1.660615e-02 2.028720e-03 1.809971e-03
8.000000e+09 1.961927e-03 1.831070e-03 9.978684e-01 -1.682107e-02 9.978641e-01 -1.681558e-02 2.032332e-03 1.832310e-03
8.100000e+09 1.964012e-03 1.853433e-03 9.978622e-01 -1.703051e-02 9.978580e-01 -1.702499e-02 2.035984e-03 1.854629e-03
8.200000e+09 1.966117e-03 1.875779e-03 9.978560e-01 -1.723993e-02 9.978519e-01 -1.723437e-02 2.039676e-03 1.876928e-03
8.300000e+09 1.968242e-03 1.898106e-03 9.978497e-01 -1.744931e-02 9.978456e-01 -1.744373e-02 2.043407e-03 1.899206e-03
8.400000e+09 1.970388e-03 1.920414e-03 9.978433e-01 -1.765866e-02 9.978393e-01 -1.765305e-02 2.047177e-03 1.921463e-03
8.500000e+09 1.972553e-03 1.942703e-03 9.978369e-01 -1.786799e-02 9.978330e-01 -1.786235e-02 2.050986e-03 1.943699e-03
8.600000e+09 1.974738e-03 1.964973e-03 9.978303e-01 -1.807728e-02 9.978266e-01 -1.807161e-02 2.054833e-03 1.965913e-03
8.700000e+09 1.976943e-03 1.987224e-03 9.978238e-01 -1.828654e-02 9.978201e-01 -1.828085e-02 2.058719e-03 1.988106e-03
8.800000e+09 1.979167e-03 2.009455e-03 9.978171e-01 -1.849578e-02 9.978135e-01 -1.849006e-02 2.062644e-03 2.010277e-03
8.900000e+09 1.981410e-03 2.031667e-03 9.978104e-01 -1.870498e-02 9.978069e-01 -1.869924e-02 2.066606e-03 2.032427e-03
9.000000e+09 1.983673e-03 2.053859e-03 9.978036e-01 -1.891416e-02 9.978002e-01 -1.890840e-02 2.070606e-03 2.054554e-03
9.100000e+09 1.985954e-03 2.076031e-03 9.977968e-01 -1.912330e-02 9.977935e-01 -1.911752e-02 2.074644e-03 2.076659e-03
9.200000e+09 1.988253e-03 2.098183e-03 9.977899e-01 -1.933241e-02 9.977866e-01 -1.932661e-02 2.078719e-03 2.098742e-03
9.300000e+09 1.990572e-03 2.120315e-03 9.977829e-01 -1.954149e-02 9.977797e-01 -1.953567e-02 2.082831e-03 2.120802e-03
9.400000e+09 1.992908e-03 2.142426e-03 9.977758e-01 -1.975054e-02 9.977728e-01 -1.974471e-02 2.086981e-03 2.142840e-03
9.500000e+09 1.995262e-03 2.164517e-03 9.977687e-01 -1.995955e-02 9.977658e-01 -1.995371e-02 2.091167e-03 2.164855e-03
9.600000e+09 1.997634e-03 2.186588e-03 9.977616e-01 -2.016854e-02 9.977587e-01 -2.016268e-02 2.095390e-03 2.186847e-03
9.700000e+09 2.000024e-03 2.208638e-03 9.977543e-01 -2.037749e-02 9.977516e-01 -2.037162e-02 2.099649e-03 2.208816e-03
9.800000e+09 2.002431e-03 2.230667e-03 9.977470e-01 -2.058641e-02 9.977444e-01 -2.058053e-02 2.103944e-03 2.230761e-03
9.900000e+09 2.004855e-03 2.252675e-03 9.977397e-01 -2.079530e-02 9.977371e-01 -2.078941e-02 2.108274e-03 2.252683e-03
1.000000e+10 2.007297e-03 2.274662e-03 9.977322e-01 -2.100416e-02 9.977298e-01 -2.099825e-02 2.112641e-03 2.274582e-03
1.010000e+10 2.009755e-03 2.296628e-03 9.977248e-01 -2.121298e-02 9.977224e-01 -2.120707e-02 2.117043e-03 2.296457e-03
1.020000e+10 2.012229e-03 2.318573e-03 9.977172e-01 -2.142177e-02 9.977149e-01 -2.141586e-02 2.121480e-03 2.318308e-03
1.030000e+10 2.014720e-03 2.340496e-03 9.977096e-01 -2.163053e-02 9.977074e-01 -2.162461e-02 2.125952e-03 2.340135e-03
1.040000e+10 2.017228e-03 2.362397e-03 9.977019e-01 -2.183925e-02 9.976998e-01 -2.183333e-02 2.130459e-03 2.361938e-03
1.050000e+10 2.019751e-03 2.384277e-03 9.976942e-01 -2.204794e-02 9.976922e-01 -2.204202e-02 2.135001e-03 2.383717e-03
1.060000e+10 2.022290e-03 2.406135e-03 9.976864e-01 -2.225660e-02 9.976845e-01 -2.225067e-02 2.139576e-03 2.405471e-03
1.070000e+10 2.024844e-03 2.427971e-03 9.976785e-01 -2.246522e-02 9.976767e-01 -2.245930e-02 2.144186e-03 2.427201e-03
1.080000e+10 2.027414e-03 2.449785e-03 9.976706e-01 -2.267381e-02 9.976689e-01 -2.266789e-02 2.148830e-03 2.448907e-03
1.090000e+10 2.029998e-03 2.471577e-03 9.976626e-01 -2.288237e-02 9.976610e-01 -2.287645e-02 2.153507e-03 2.470587e-03
1.100000e+10 2.032598e-03 2.493347e-03 9.976546e-01 -2.309089e-02 9.976531e-01 -2.308497e-02 2.158217e-03 2.492243e-03
1.110000e+10 2.035212e-03 2.515094e-03 9.976465e-01 -2.329938e-02 9.976451e-01 -2.329347e-02 2.162961e-03 2.513874e-03
1.120000e+10 2.037841e-03 2.536819e-03 9.976383e-01 -2.350783e-02 9.976370e-01 -2.350193e-02 2.167738e-03 2.535480e-03
1.130000e+10 2.040484e-03 2.558522e-03 9.976301e-01 -2.371625e-02 9.976289e-01 -2.371035e-02 2.172547e-03 2.557060e-03
1.140000e+10 2.043141e-03 2.580201e-03 9.976218e-01 -2.392463e-02 9.976207e-01 -2.391875e-02 2.177389e-03 2.578616e-03
1.150000e+10 2.045812e-03 2.601858e-03 9.976135e-01 -2.413298e-02 9.976125e-01 -2.412711e-02 2.182262e-03 2.600145e-03
1.160000e+10 2.048496e-03 2.623493e-03 9.976051e-01 -2.434130e-02 9.976042e-01 -2.433543e-02 2.187168e-03 2.621650e-03
1.170000e+10 2.051194e-03 2.645104e-03 9.975967e-01 -2.454958e-02 9.975958e-01 -2.454373e-02 2.192106e-03 2.643129e-03
1.180000e+10 2.053905e-03 2.666693e-03 9.975882e-01 -2.475782e-02 9.975874e-01 -2.475198e-02 2.197075e-03 2.664582e-03
1.190000e+10 2.056629e-03 2.688258e-03 9.975796e-01 -2.496603e-02 9.975789e-01 -2.496021e-02 2.202075e-03 2.686009e-03
1.200000e+10 2.059365e-03 2.709801e-03 9.975710e-01 -2.517420e-02 9.975704e-01 -2.516840e-02 2.207106e-03 2.707411e-03
1.210000e+10 2.062114e-03 2.731320e-03 9.975623e-01 -2.538234e-02 9.975618e-01 -2.537656e-02 2.212168e-03 2.728786e-03
1.220000e+10 2.064875e-03 2.752815e-03 9.975536e-01 -2.559045e-02 9.975532e-01 -2.558468e-02 2.217260e-03 2.750136e-03
1.230000e+10 2.067649e-03 2.774288e-03 9.975448e-01 -2.579851e-02 9.975445e-01 -2.579277e-02 2.222383e-03 2.771459e-03
1.240000e+10 2.070434e-03 2.795737e-03 9.975359e-01 -2.600655e-02 9.975358e-01 -2.600082e-02 2.227536e-03 2.792756e-03
1.250000e+10 2.073231e-03 2.817163e-03 9.975270e-01 -2.621454e-02 9.975270e-01 -2.620884e-02 2.232719e-03 2.814027e-03
1.260000e+10 2.076039e-03 2.838565e-03 9.975181e-01 -2.642250e-02 9.975181e-01 -2.641683e-02 2.237931e-03 2.835272e-03
1.270000e+10 2.078858e-03 2.859943e-03 9.975091e-01 -2.663043e-02 9.975092e-01 -2.662478e-02 2.243172e-03 2.856490e-03
1.280000e+10 2.081688e-03 2.881298e-03 9.975000e-01 -2.683832e-02 9.975002e-01 -2.683270e-02 2.248443e-03 2.877681e-03
1.290000e+10 2.084529e-03 2.902629e-03 9.974909e-01 -2.704617e-02 9.974912e-01 -2.704058e-02 2.253742e-03 2.898846e-03
1.300000e+10 2.087381e-03 2.923936e-03 9.974817e-01 -2.725399e-02 9.974821e-01 -2.724843e-02 2.259070e-03 2.919985e-03
1.310000e+10 2.090243e-03 2.945220e-03 9.974725e-01 -2.746177e-02 9.974730e-01 -2.745624e-02 2.264427e-03 2.941096e-03
1.320000e+10 2.093114e-03 2.966479e-03 9.974632e-01 -2.766951e-02 9.974638e-01 -2.766402e-02 2.269811e-03 2.962181e-03
1.330000e+10 2.095996e-03 2.987715e-03 9.974539e-01 -2.787722e-02 9.974546e-01 -2.787176e-02 2.275224e-03 2.983239e-03
1.340000e+10 2.098887e-03 3.008926e-03 9.974445e-01 -2.808490e-02 9.974453e-01 -2.807947e-02 2.280664e-03 3.004271e-03
1.350000e+10 2.101788e-03 3.030114e-03 9.974351e-01 -2.829253e-02 9.974359e-01 -2.828714e-02 2.286131e-03 3.025275e-03
1.360000e+10 2.104698e-03 3.051278e-03 9.974256e-01 -2.850013e-02 9.974265e-01 -2.849478e-02 2.291626e-03 3.046252e-03
1.370000e+10 2.107616e-03 3.072417e-03 9.974161e-01 -2.870770e-02 9.974171e-01 -2.870238e-02 2.297148e-03 3.067202e-03
1.380000e+10 2.110544e-03 3.093532e-03 9.974065e-01 -2.891522e-02 9.974076e-01 -2.890995e-02 2.302696e-03 3.088126e-03
1.390000e+10 2.113480e-03 3.114623e-03 9.973969e-01 -2.912272e-02 9.973981e-01 -2.911748e-02 2.308271e-03 3.109022e-03
1.400000e+10 2.116424e-03 3.135690e-03 9.973872e-01 -2.933017e-02 9.973885e-01 -2.932497e-02 2.313871e-03 3.129891e-03
1.410000e+10 2.119376e-03 3.156733e-03 9.973774e-01 -2.953759e-02 9.973788e-01 -2.953244e-02 2.319498e-03 3.150732e-03
1.420000e+10 2.122336e-03 3.177751e-03 9.973677e-01 -2.974497e-02 9.973691e-01 -2.973986e-02 2.325151e-03 3.171547e-03
1.430000e+10 2.125304e-03 3.198745e-03 9.973578e-01 -2.995232e-02 9.973594e-01 -2.994725e-02 2.330829e-03 3.192334e-03
1.440000e+10 2.128279e-03 3.219715e-03 9.973479e-01 -3.015963e-02 9.973496e-01 -3.015461e-02 2.336532e-03 3.213094e-03
1.450000e+10 2.131261e-03 3.240661e-03 9.973380e-01 -3.036690e-02 9.973397e-01 -3.036193e-02 2.342261e-03 3.233827e-03
1.460000e+10 2.134250e-03 3.261582e-03 9.973280e-01 -3.057414e-02 9.973298e-01 -3.056922e-02 2.348014e-03 3.254532e-03
1.470000e+10 2.137246e-03 3.282478e-03 9.973180e-01 -3.078134e-02 9.973199e-01 -3.077647e-02 2.353791e-03 3.275210e-03
1.480000e+10 2.140249e-03 3.303351e-03 9.973079e-01 -3.098851e-02 9.973099e-01 -3.098368e-02 2.359593e-03 3.295861e-03
1.490000e+10 2.143257e-03 3.324199e-03 9.972978e-01 -3.119563e-02 9.972998e-01 -3.119086e-02 2.365419e-03 3.316484e-03
1.500000e+10 2.146272e-03 3.345022e-03 9.972876e-01 -3.140273e-02 9.972898e-01 -3.139801e-02 2.371269e-03 3.337080e-03
1.510000e+10 2.149293e-03 3.365821e-03 9.972774e-01 -3.160978e-02 9.972796e-01 -3.160512e-02 2.377142e-03 3.357648e-03
1.520000e+10 2.152319e-03 3.386596e-03 9.972671e-01 -3.181680e-02 9.972694e-01 -3.181219e-02 2.383039e-03 3.378189e-03
1.530000e+10 2.155350e-03 3.407347e-03 9.972568e-01 -3.202379e-02 9.972592e-01 -3.201923e-02 2.388959e-03 3.398703e-03
1.540000e+10 2.158387e-03 3.428072e-03 9.972465e-01 -3.223073e-02 9.972489e-01 -3.222624e-02 2.394901e-03 3.419189e-03
1.550000e+10 2.161429e-03 3.448774e-03 9.972361e-01 -3.243764e-02 9.972386e-01 -3.243321e-02 2.400867e-03 3.439647e-03
1.560000e+10 2.164476e-03 3.469451e-03 9.972256e-01 -3.264452e-02 9.972282e-01 -3.264014e-02 2.406855e-03 3.460078e-03
1.570000e+10 2.167527e-03 3.490104e-03 9.972151e-01 -3.285136e-02 9.972178e-01 -3.284704e-02 2.412865e-03 3.480482e-03
1.580000e+10 2.170582e-03 3.510732e-03 9.972046e-01 -3.305816e-02 9.972074e-01 -3.305390e-02 2.418896e-03 3.500858e-03
1.590000e+10 2.173642e-03 3.531336e-03 9.971940e-01 -3.326493e-02 9.971969e-01 -3.326073e-02 2.424950e-03 3.521207e-03
1.600000e+10 2.176705e-03 3.551916e-03 9.971834e-01 -3.347166e-02 9.971863e-01 -3.346753e-02 2.431025e-03 3.541528e-03
1.610000e+10 2.179772e-03 3.572471e-03 9.971727e-01 -3.367836e-02 9.971757e-01 -3.367429e-02 2.437122e-03 3.561822e-03
1.620000e+10 2.182843e-03 3.593002e-03 9.971620e-01 -3.388502e-02 9.971651e-01 -3.388101e-02 2.443239e-03 3.582088e-03
1.630000e+10 2.185916e-03 3.613508e-03 9.971512e-01 -3.409164e-02 9.971544e-01 -3.408770e-02 2.449377e-03 3.602327e-03
1.640000e+10 2.188993e-03 3.633990e-03 9.971404e-01 -3.429823e-02 9.971437e-01 -3.429436e-02 2.455536e-03 3.622539e-03
1.650000e+10 2.192073e-03 3.654448e-03 9.971296e-01 -3.450478e-02 9.971329e-01 -3.450098e-02 2.461715e-03 3.642723e-03
1.660000e+10 2.195155e-03 3.674882e-03 9.971187e-01 -3.471130e-02 9.971221e-01 -3.470756e-02 2.467914e-03 3.662880e-03
