#   Hz   S  RI   R   50
!
0.000000e+00 2.206760e-03 0.000000e+00 9.978228e-01 0.000000e+00 9.978128e-01 0.000000e+00 2.201713e-03 0.000000e+00
1.000000e+08 2.206780e-03 2.424282e-05 9.978228e-01 -2.603393e-04 9.978127e-01 -2.602237e-04 2.201746e-03 2.426848e-05
2.000000e+08 2.206840e-03 4.848525e-05 9.978226e-01 -5.206780e-04 9.978125e-01 -5.204468e-04 2.201845e-03 4.853652e-05
3.000000e+08 2.206940e-03 7.272689e-05 9.978223e-01 -7.810155e-04 9.978122e-01 -7.806687e-04 2.202010e-03 7.280369e-05
4.000000e+08 2.207080e-03 9.696735e-05 9.978219e-01 -1.041351e-03 9.978118e-01 -1.040889e-03 2.202241e-03 9.706955e-05
5.000000e+08 2.207261e-03 1.212062e-04 9.978213e-01 -1.301684e-03 9.978113e-01 -1.301107e-03 2.202539e-03 1.213337e-04
6.000000e+08 2.207481e-03 1.454432e-04 9.978207e-01 -1.562015e-03 9.978106e-01 -1.561322e-03 2.202902e-03 1.455956e-04
7.000000e+08 2.207741e-03 1.696777e-04 9.978199e-01 -1.822341e-03 9.978099e-01 -1.821534e-03 2.203332e-03 1.698549e-04
8.000000e+08 2.208041e-03 1.939095e-04 9.978190e-01 -2.082664e-03 9.978090e-01 -2.081741e-03 2.203827e-03 1.941111e-04
9.000000e+08 2.208381e-03 2.181382e-04 9.978180e-01 -2.342981e-03 9.978080e-01 -2.341944e-03 2.204388e-03 2.183639e-04
1.000000e+09 2.208761e-03 2.423633e-04 9.978168e-01 -2.603294e-03 9.978069e-01 -2.602142e-03 2.205016e-03 2.426127e-04
1.100000e+09 2.209181e-03 2.665845e-04 9.978156e-01 -2.863600e-03 9.978056e-01 -2.862334e-03 2.205709e-03 2.668572e-04
1.200000e+09 2.209641e-03 2.908013e-04 9.978142e-01 -3.123900e-03 9.978043e-01 -3.122520e-03 2.206468e-03 2.910968e-04
1.300000e+09 2.210140e-03 3.150135e-04 9.978127e-01 -3.384192e-03 9.978028e-01 -3.382699e-03 2.207293e-03 3.153313e-04
1.400000e+09 2.210680e-03 3.392206e-04 9.978111e-01 -3.644477e-03 9.978012e-01 -3.642870e-03 2.208183e-03 3.395600e-04
1.500000e+09 2.211258e-03 3.634221e-04 9.978093e-01 -3.904753e-03 9.977995e-01 -3.903033e-03 2.209139e-03 3.637827e-04
1.600000e+09 2.211877e-03 3.876178e-04 9.978075e-01 -4.165020e-03 9.977977e-01 -4.163188e-03 2.210161e-03 3.879989e-04
1.700000e+09 2.212535e-03 4.118072e-04 9.978055e-01 -4.425278e-03 9.977957e-01 -4.423334e-03 2.211248e-03 4.122081e-04
1.800000e+09 2.213232e-03 4.359900e-04 9.978034e-01 -4.685525e-03 9.977936e-01 -4.683470e-03 2.212401e-03 4.364099e-04
1.900000e+09 2.213969e-03 4.601658e-04 9.978012e-01 -4.945762e-03 9.977915e-01 -4.943595e-03 2.213619e-03 4.606039e-04
2.000000e+09 2.214745e-03 4.843341e-04 9.977989e-01 -5.205987e-03 9.977892e-01 -5.203710e-03 2.214902e-03 4.847896e-04
2.100000e+09 2.215560e-03 5.084946e-04 9.977964e-01 -5.466200e-03 9.977867e-01 -5.463814e-03 2.216250e-03 5.089667e-04
2.200000e+09 2.216414e-03 5.326469e-04 9.977938e-01 -5.726401e-03 9.977842e-01 -5.723905e-03 2.217664e-03 5.331347e-04
2.300000e+09 2.217308e-03 5.567906e-04 9.977911e-01 -5.986589e-03 9.977816e-01 -5.983984e-03 2.219142e-03 5.572932e-04
2.400000e+09 2.218240e-03 5.809254e-04 9.977883e-01 -6.246763e-03 9.977788e-01 -6.244050e-03 2.220686e-03 5.814418e-04
2.500000e+09 2.219211e-03 6.050509e-04 9.977854e-01 -6.506923e-03 9.977759e-01 -6.504102e-03 2.222294e-03 6.055799e-04
2.600000e+09 2.220221e-03 6.291667e-04 9.977824e-01 -6.767068e-03 9.977729e-01 -6.764140e-03 2.223967e-03 6.297073e-04
2.700000e+09 2.221270e-03 6.532724e-04 9.977792e-01 -7.027198e-03 9.977698e-01 -7.024163e-03 2.225704e-03 6.538236e-04
2.800000e+09 2.222357e-03 6.773676e-04 9.977759e-01 -7.287312e-03 9.977666e-01 -7.284171e-03 2.227506e-03 6.779282e-04
2.900000e+09 2.223483e-03 7.014520e-04 9.977725e-01 -7.547409e-03 9.977632e-01 -7.544164e-03 2.229372e-03 7.020207e-04
3.000000e+09 2.224646e-03 7.255251e-04 9.977690e-01 -7.807489e-03 9.977598e-01 -7.804140e-03 2.231302e-03 7.261008e-04
3.100000e+09 2.225848e-03 7.495867e-04 9.977654e-01 -8.067551e-03 9.977562e-01 -8.064099e-03 2.233296e-03 7.501681e-04
3.200000e+09 2.227088e-03 7.736364e-04 9.977616e-01 -8.327595e-03 9.977525e-01 -8.324040e-03 2.235355e-03 7.742221e-04
3.300000e+09 2.228366e-03 7.976737e-04 9.977578e-01 -8.587621e-03 9.977487e-01 -8.583964e-03 2.237476e-03 7.982624e-04
3.400000e+09 2.229682e-03 8.216984e-04 9.977538e-01 -8.847627e-03 9.977448e-01 -8.843869e-03 2.239662e-03 8.222887e-04
3.500000e+09 2.231036e-03 8.457100e-04 9.977497e-01 -9.107613e-03 9.977407e-01 -9.103755e-03 2.241911e-03 8.463004e-04
3.600000e+09 2.232427e-03 8.697082e-04 9.977455e-01 -9.367579e-03 9.977366e-01 -9.363622e-03 2.244223e-03 8.702973e-04
3.700000e+09 2.233855e-03 8.936927e-04 9.977411e-01 -9.627523e-03 9.977323e-01 -9.623468e-03 2.246599e-03 8.942789e-04
3.800000e+09 2.235320e-03 9.176630e-04 9.977367e-01 -9.887447e-03 9.977279e-01 -9.883294e-03 2.249037e-03 9.182448e-04
3.900000e+09 2.236823e-03 9.416188e-04 9.977321e-01 -1.014735e-02 9.977234e-01 -1.014310e-02 2.251539e-03 9.421946e-04
4.000000e+09 2.238362e-03 9.655598e-04 9.977274e-01 -1.040723e-02 9.977188e-01 -1.040288e-02 2.254103e-03 9.661279e-04
4.100000e+09 2.239938e-03 9.894857e-04 9.977227e-01 -1.066708e-02 9.977141e-01 -1.066264e-02 2.256729e-03 9.900444e-04
4.200000e+09 2.241551e-03 1.013396e-03 9.977177e-01 -1.092691e-02 9.977092e-01 -1.092238e-02 2.259418e-03 1.013944e-03
4.300000e+09 2.243200e-03 1.037290e-03 9.977127e-01 -1.118672e-02 9.977043e-01 -1.118210e-02 2.262168e-03 1.037825e-03
4.400000e+09 2.244886e-03 1.061168e-03 9.977076e-01 -1.144650e-02 9.976992e-01 -1.144179e-02 2.264981e-03 1.061689e-03
4.500000e+09 2.246607e-03 1.085030e-03 9.977023e-01 -1.170626e-02 9.976941e-01 -1.170146e-02 2.267856e-03 1.085534e-03
4.600000e+09 2.248364e-03 1.108875e-03 9.976970e-01 -1.196599e-02 9.976888e-01 -1.196110e-02 2.270792e-03 1.109360e-03
4.700000e+09 2.250157e-03 1.132702e-03 9.976915e-01 -1.222570e-02 9.976834e-01 -1.222072e-02 2.273789e-03 1.133167e-03
4.800000e+09 2.251986e-03 1.156512e-03 9.976859e-01 -1.248538e-02 9.976779e-01 -1.248031e-02 2.276847e-03 1.156955e-03
4.900000e+09 2.253850e-03 1.180303e-03 9.976802e-01 -1.274503e-02 9.976723e-01 -1.273987e-02 2.279967e-03 1.180722e-03
5.000000e+09 2.255749e-03 1.204077e-03 9.976744e-01 -1.300465e-02 9.976665e-01 -1.299941e-02 2.283147e-03 1.204469e-03
5.100000e+09 2.257683e-03 1.227832e-03 9.976685e-01 -1.326425e-02 9.976607e-01 -1.325893e-02 2.286388e-03 1.228196e-03
5.200000e+09 2.259651e-03 1.251568e-03 9.976624e-01 -1.352382e-02 9.976547e-01 -1.351841e-02 2.289688e-03 1.251902e-03
5.300000e+09 2.261654e-03 1.275285e-03 9.976563e-01 -1.378335e-02 9.976487e-01 -1.377787e-02 2.293049e-03 1.275586e-03
5.400000e+09 2.263692e-03 1.298982e-03 9.976500e-01 -1.404286e-02 9.976425e-01 -1.403730e-02 2.296470e-03 1.299248e-03
5.500000e+09 2.265764e-03 1.322659e-03 9.976437e-01 -1.430234e-02 9.976362e-01 -1.429670e-02 2.299951e-03 1.322888e-03
5.600000e+09 2.267869e-03 1.346316e-03 9.976372e-01 -1.456179e-02 9.976298e-01 -1.455607e-02 2.303490e-03 1.346506e-03
5.700000e+09 2.270008e-03 1.369953e-03 9.976306e-01 -1.482120e-02 9.976233e-01 -1.481541e-02 2.307089e-03 1.370101e-03
5.800000e+09 2.272181e-03 1.393568e-03 9.976239e-01 -1.508059e-02 9.976167e-01 -1.507472e-02 2.310747e-03 1.393673e-03
5.900000e+09 2.274387e-03 1.417163e-03 9.976171e-01 -1.533994e-02 9.976100e-01 -1.533400e-02 2.314464e-03 1.417221e-03
6.000000e+09 2.276626e-03 1.440736e-03 9.976101e-01 -1.559926e-02 9.976032e-01 -1.559324e-02 2.318239e-03 1.440746e-03
6.100000e+09 2.278897e-03 1.464287e-03 9.976031e-01 -1.585854e-02 9.975962e-01 -1.585246e-02 2.322072e-03 1.464246e-03
6.200000e+09 2.281202e-03 1.487816e-03 9.975960e-01 -1.611780e-02 9.975892e-01 -1.611165e-02 2.325963e-03 1.487722e-03
6.300000e+09 2.283538e-03 1.511323e-03 9.975887e-01 -1.637702e-02 9.975821e-01 -1.637080e-02 2.329912e-03 1.511173e-03
6.400000e+09 2.285907e-03 1.534807e-03 9.975814e-01 -1.663620e-02 9.975748e-01 -1.662992e-02 2.333918e-03 1.534598e-03
6.500000e+09 2.288308e-03 1.558268e-03 9.975739e-01 -1.689535e-02 9.975674e-01 -1.688900e-02 2.337981e-03 1.557998e-03
6.600000e+09 2.290740e-03 1.581706e-03 9.975664e-01 -1.715447e-02 9.975600e-01 -1.714805e-02 2.342101e-03 1.581373e-03
6.700000e+09 2.293203e-03 1.605120e-03 9.975587e-01 -1.741355e-02 9.975524e-01 -1.740707e-02 2.346278e-03 1.604721e-03
6.800000e+09 2.295698e-03 1.628511e-03 9.975509e-01 -1.767259e-02 9.975447e-01 -1.766606e-02 2.350511e-03 1.628042e-03
6.900000e+09 2.298223e-03 1.651877e-03 9.975430e-01 -1.793160e-02 9.975369e-01 -1.792501e-02 2.354800e-03 1.651337e-03
7.000000e+09 2.300779e-03 1.675219e-03 9.975350e-01 -1.819057e-02 9.975291e-01 -1.818392e-02 2.359145e-03 1.674605e-03
7.100000e+09 2.303366e-03 1.698537e-03 9.975269e-01 -1.844950e-02 9.975211e-01 -1.844280e-02 2.363545e-03 1.697845e-03
7.200000e+09 2.305982e-03 1.721829e-03 9.975187e-01 -1.870840e-02 9.975130e-01 -1.870164e-02 2.368001e-03 1.721057e-03
7.300000e+09 2.308628e-03 1.745096e-03 9.975104e-01 -1.896726e-02 9.975048e-01 -1.896044e-02 2.372512e-03 1.744242e-03
7.400000e+09 2.311304e-03 1.768338e-03 9.975020e-01 -1.922608e-02 9.974965e-01 -1.921921e-02 2.377077e-03 1.767398e-03
7.500000e+09 2.314009e-03 1.791554e-03 9.974935e-01 -1.948486e-02 9.974881e-01 -1.947794e-02 2.381697e-03 1.790525e-03
7.600000e+09 2.316744e-03 1.814744e-03 9.974849e-01 -1.974360e-02 9.974796e-01 -1.973664e-02 2.386370e-03 1.813624e-03
7.700000e+09 2.319507e-03 1.837908e-03 9.974762e-01 -2.000230e-02 9.974710e-01 -1.999530e-02 2.391098e-03 1.836693e-03
7.800000e+09 2.322298e-03 1.861045e-03 9.974674e-01 -2.026096e-02 9.974623e-01 -2.025391e-02 2.395879e-03 1.859733e-03
7.900000e+09 2.325117e-03 1.884156e-03 9.974584e-01 -2.051959e-02 9.974535e-01 -2.051249e-02 2.400713e-03 1.882743e-03
8.000000e+09 2.327965e-03 1.907240e-03 9.974494e-01 -2.077817e-02 9.974446e-01 -2.077103e-02 2.405600e-03 1.905723e-03
8.100000e+09 2.330840e-03 1.930296e-03 9.974403e-01 -2.103671e-02 9.974355e-01 -2.102953e-02 2.410540e-03 1.928673e-03
8.200000e+09 2.333743e-03 1.953325e-03 9.974311e-01 -2.129521e-02 9.974264e-01 -2.128800e-02 2.415531e-03 1.951593e-03
8.300000e+09 2.336672e-03 1.976326e-03 9.974217e-01 -2.155367e-02 9.974172e-01 -2.154642e-02 2.420575e-03 1.974481e-03
8.400000e+09 2.339629e-03 1.999299e-03 9.974123e-01 -2.181208e-02 9.974079e-01 -2.180480e-02 2.425671e-03 1.997338e-03
8.500000e+09 2.342611e-03 2.022244e-03 9.974028e-01 -2.207046e-02 9.973985e-01 -2.206314e-02 2.430817e-03 2.020164e-03
8.600000e+09 2.345620e-03 2.045161e-03 9.973932e-01 -2.232879e-02 9.973890e-01 -2.232144e-02 2.436015e-03 2.042958e-03
8.700000e+09 2.348655e-03 2.068049e-03 9.973835e-01 -2.258708e-02 9.973794e-01 -2.257970e-02 2.441264e-03 2.065721e-03
8.800000e+09 2.351716e-03 2.090908e-03 9.973736e-01 -2.284532e-02 9.973697e-01 -2.283792e-02 2.446562e-03 2.088451e-03
8.900000e+09 2.354802e-03 2.113738e-03 9.973637e-01 -2.310353e-02 9.973599e-01 -2.309609e-02 2.451911e-03 2.111149e-03
9.000000e+09 2.357913e-03 2.136539e-03 9.973537e-01 -2.336168e-02 9.973500e-01 -2.335423e-02 2.457310e-03 2.133815e-03
9.100000e+09 2.361048e-03 2.159311e-03 9.973436e-01 -2.361980e-02 9.973400e-01 -2.361232e-02 2.462758e-03 2.156447e-03
9.200000e+09 2.364208e-03 2.182052e-03 9.973334e-01 -2.387787e-02 9.973300e-01 -2.387037e-02 2.468255e-03 2.179047e-03
9.300000e+09 2.367392e-03 2.204764e-03 9.973231e-01 -2.413589e-02 9.973198e-01 -2.412837e-02 2.473801e-03 2.201613e-03
9.400000e+09 2.370600e-03 2.227446e-03 9.973127e-01 -2.439388e-02 9.973095e-01 -2.438633e-02 2.479395e-03 2.224146e-03
9.500000e+09 2.373831e-03 2.250098e-03 9.973022e-01 -2.465181e-02 9.972991e-01 -2.464425e-02 2.485037e-03 2.246645e-03
9.600000e+09 2.377086e-03 2.272719e-03 9.972917e-01 -2.490970e-02 9.972887e-01 -2.490213e-02 2.490727e-03 2.269110e-03
9.700000e+09 2.380363e-03 2.295309e-03 9.972810e-01 -2.516755e-02 9.972781e-01 -2.515996e-02 2.496464e-03 2.291541e-03
9.800000e+09 2.383663e-03 2.317869e-03 9.972702e-01 -2.542535e-02 9.972675e-01 -2.541775e-02 2.502248e-03 2.313938e-03
9.900000e+09 2.386986e-03 2.340397e-03 9.972594e-01 -2.568310e-02 9.972568e-01 -2.567549e-02 2.508080e-03 2.336300e-03
1.000000e+10 2.390330e-03 2.362895e-03 9.972484e-01 -2.594081e-02 9.972459e-01 -2.593319e-02 2.513957e-03 2.358627e-03
1.010000e+10 2.393695e-03 2.385361e-03 9.972374e-01 -2.619847e-02 9.972350e-01 -2.619085e-02 2.519880e-03 2.380920e-03
1.020000e+10 2.397082e-03 2.407796e-03 9.972262e-01 -2.645608e-02 9.972240e-01 -2.644846e-02 2.525850e-03 2.403177e-03
1.030000e+10 2.400490e-03 2.430199e-03 9.972150e-01 -2.671365e-02 9.972129e-01 -2.670602e-02 2.531864e-03 2.425399e-03
1.040000e+10 2.403919e-03 2.452570e-03 9.972037e-01 -2.697117e-02 9.972017e-01 -2.696354e-02 2.537924e-03 2.447585e-03
1.050000e+10 2.407368e-03 2.474909e-03 9.971923e-01 -2.722864e-02 9.971904e-01 -2.722101e-02 2.544028e-03 2.469736e-03
1.060000e+10 2.410837e-03 2.497216e-03 9.971808e-01 -2.748606e-02 9.971790e-01 -2.747844e-02 2.550176e-03 2.491851e-03
1.070000e+10 2.414326e-03 2.519490e-03 9.971692e-01 -2.774344e-02 9.971676e-01 -2.773582e-02 2.556368e-03 2.513930e-03
1.080000e+10 2.417834e-03 2.541733e-03 9.971575e-01 -2.800077e-02 9.971560e-01 -2.799315e-02 2.562604e-03 2.535973e-03
1.090000e+10 2.421361e-03 2.563942e-03 9.971458e-01 -2.825805e-02 9.971444e-01 -2.825044e-02 2.568883e-03 2.557979e-03
1.100000e+10 2.424906e-03 2.586119e-03 9.971339e-01 -2.851528e-02 9.971327e-01 -2.850768e-02 2.575205e-03 2.579949e-03
1.110000e+10 2.428471e-03 2.608264e-03 9.971220e-01 -2.877247e-02 9.971209e-01 -2.876488e-02 2.581570e-03 2.601882e-03
1.120000e+10 2.432053e-03 2.630375e-03 9.971100e-01 -2.902960e-02 9.971090e-01 -2.902203e-02 2.587977e-03 2.623778e-03
1.130000e+10 2.435653e-03 2.652453e-03 9.970979e-01 -2.928669e-02 9.970970e-01 -2.927913e-02 2.594425e-03 2.645638e-03
1.140000e+10 2.439270e-03 2.674498e-03 9.970857e-01 -2.954373e-02 9.970849e-01 -2.953618e-02 2.600915e-03 2.667460e-03
1.150000e+10 2.442904e-03 2.696509e-03 9.970734e-01 -2.980072e-02 9.970728e-01 -2.979319e-02 2.607446e-03 2.689245e-03
1.160000e+10 2.446555e-03 2.718487e-03 9.970610e-01 -3.005766e-02 9.970605e-01 -3.005015e-02 2.614018e-03 2.710993e-03
1.170000e+10 2.450223e-03 2.740432e-03 9.970486e-01 -3.031455e-02 9.970482e-01 -3.030706e-02 2.620630e-03 2.732703e-03
1.180000e+10 2.453906e-03 2.762342e-03 9.970361e-01 -3.057139e-02 9.970358e-01 -3.056393e-02 2.627283e-03 2.754376e-03
1.190000e+10 2.457605e-03 2.784219e-03 9.970235e-01 -3.082818e-02 9.970233e-01 -3.082074e-02 2.633975e-03 2.776010e-03
1.200000e+10 2.461320e-03 2.806062e-03 9.970108e-01 -3.108492e-02 9.970107e-01 -3.107751e-02 2.640706e-03 2.797607e-03
1.210000e+10 2.465050e-03 2.827872e-03 9.969980e-01 -3.134162e-02 9.969981e-01 -3.133423e-02 2.647476e-03 2.819166e-03
1.220000e+10 2.468794e-03 2.849647e-03 9.969851e-01 -3.159826e-02 9.969853e-01 -3.159090e-02 2.654285e-03 2.840687e-03
1.230000e+10 2.472553e-03 2.871388e-03 9.969722e-01 -3.185485e-02 9.969725e-01 -3.184753e-02 2.661132e-03 2.862170e-03
1.240000e+10 2.476326e-03 2.893094e-03 9.969592e-01 -3.211140e-02 9.969596e-01 -3.210410e-02 2.668016e-03 2.883614e-03
1.250000e+10 2.480113e-03 2.914767e-03 9.969461e-01 -3.236789e-02 9.969467e-01 -3.236063e-02 2.674939e-03 2.905020e-03
1.260000e+10 2.483913e-03 2.936405e-03 9.969329e-01 -3.262433e-02 9.969336e-01 -3.261711e-02 2.681898e-03 2.926388e-03
1.270000e+10 2.487726e-03 2.958008e-03 9.969197e-01 -3.288073e-02 9.969205e-01 -3.287354e-02 2.688894e-03 2.947717e-03
1.280000e+10 2.491552e-03 2.979577e-03 9.969063e-01 -3.313707e-02 9.969072e-01 -3.312992e-02 2.695927e-03 2.969007e-03
1.290000e+10 2.495390e-03 3.001111e-03 9.968929e-01 -3.339336e-02 9.968939e-01 -3.338625e-02 2.702996e-03 2.990259e-03
1.300000e+10 2.499240e-03 3.022611e-03 9.968794e-01 -3.364960e-02 9.968806e-01 -3.364254e-02 2.710100e-03 3.011472e-03
1.310000e+10 2.503102e-03 3.044076e-03 9.968659e-01 -3.390579e-02 9.968671e-01 -3.389877e-02 2.717240e-03 3.032646e-03
1.320000e+10 2.506975e-03 3.065506e-03 9.968522e-01 -3.416194e-02 9.968536e-01 -3.415496e-02 2.724415e-03 3.053781e-03
1.330000e+10 2.510860e-03 3.086902e-03 9.968385e-01 -3.441803e-02 9.968400e-01 -3.441109e-02 2.731624e-03 3.074877e-03
1.340000e+10 2.514755e-03 3.108262e-03 9.968247e-01 -3.467407e-02 9.968263e-01 -3.466718e-02 2.738868e-03 3.095934e-03
1.350000e+10 2.518660e-03 3.129588e-03 9.968108e-01 -3.493006e-02 9.968126e-01 -3.492322e-02 2.746145e-03 3.116951e-03
1.360000e+10 2.522576e-03 3.150878e-03 9.967969e-01 -3.518600e-02 9.967987e-01 -3.517921e-02 2.753456e-03 3.137930e-03
1.370000e+10 2.526501e-03 3.172134e-03 9.967829e-01 -3.544189e-02 9.967848e-01 -3.543516e-02 2.760800e-03 3.158869e-03
1.380000e+10 2.530436e-03 3.193355e-03 9.967688e-01 -3.569772e-02 9.967708e-01 -3.569105e-02 2.768177e-03 3.179769e-03
1.390000e+10 2.534379e-03 3.214540e-03 9.967546e-01 -3.595351e-02 9.967568e-01 -3.594689e-02 2.775587e-03 3.200630e-03
1.400000e+10 2.538332e-03 3.235691e-03 9.967404e-01 -3.620925e-02 9.967427e-01 -3.620269e-02 2.783028e-03 3.221452e-03
1.410000e+10 2.542292e-03 3.256806e-03 9.967261e-01 -3.646494e-02 9.967285e-01 -3.645843e-02 2.790501e-03 3.242234e-03
1.420000e+10 2.546261e-03 3.277886e-03 9.967117e-01 -3.672058e-02 9.967142e-01 -3.671413e-02 2.798006e-03 3.262976e-03
1.430000e+10 2.550238e-03 3.298932e-03 9.966972e-01 -3.697616e-02 9.966998e-01 -3.696978e-02 2.805542e-03 3.283679e-03
1.440000e+10 2.554221e-03 3.319941e-03 9.966827e-01 -3.723170e-02 9.966854e-01 -3.722538e-02 2.813108e-03 3.304343e-03
1.450000e+10 2.558212e-03 3.340916e-03 9.966681e-01 -3.748718e-02 9.966709e-01 -3.748092e-02 2.820705e-03 3.324967e-03
1.460000e+10 2.562210e-03 3.361856e-03 9.966535e-01 -3.774262e-02 9.966564e-01 -3.773643e-02 2.828331e-03 3.345552e-03
1.470000e+10 2.566214e-03 3.382761e-03 9.966387e-01 -3.799801e-02 9.966417e-01 -3.799188e-02 2.835987e-03 3.366097e-03
1.480000e+10 2.570224e-03 3.403630e-03 9.966239e-01 -3.825334e-02 9.966270e-01 -3.824728e-02 2.843673e-03 3.386603e-03
1.490000e+10 2.574240e-03 3.424464e-03 9.966091e-01 -3.850863e-02 9.966123e-01 -3.850264e-02 2.851387e-03 3.407069e-03
1.500000e+10 2.578261e-03 3.445263e-03 9.965941e-01 -3.876386e-02 9.965974e-01 -3.875794e-02 2.859130e-03 3.427496e-03
1.510000e+10 2.582288e-03 3.466027e-03 9.965791e-01 -3.901905e-02 9.965825e-01 -3.901320e-02 2.866901e-03 3.447883e-03
1.520000e+10 2.586319e-03 3.486756e-03 9.965640e-01 -3.927418e-02 9.965676e-01 -3.926841e-02 2.874700e-03 3.468230e-03
1.530000e+10 2.590355e-03 3.507450e-03 9.965489e-01 -3.952927e-02 9.965525e-01 -3.952357e-02 2.882527e-03 3.488539e-03
1.540000e+10 2.594394e-03 3.528109e-03 9.965337e-01 -3.978430e-02 9.965374e-01 -3.977868e-02 2.890380e-03 3.508807e-03
1.550000e+10 2.598438e-03 3.548732e-03 9.965184e-01 -4.003929e-02 9.965222e-01 -4.003374e-02 2.898261e-03 3.529037e-03
1.560000e+10 2.602485e-03 3.569321e-03 9.965031e-01 -4.029423e-02 9.965070e-01 -4.028876e-02 2.906168e-03 3.549226e-03
1.570000e+10 2.606535e-03 3.589875e-03 9.964877e-01 -4.054911e-02 9.964917e-01 -4.054372e-02 2.914101e-03 3.569377e-03
1.580000e+10 2.610588e-03 3.610393e-03 9.964722e-01 -4.080395e-02 9.964763e-01 -4.079864e-02 2.922060e-03 3.589488e-03
1.590000e+10 2.614644e-03 3.630877e-03 9.964567e-01 -4.105874e-02 9.964609e-01 -4.105351e-02 2.930044e-03 3.609559e-03
1.600000e+10 2.618701e-03 3.651326e-03 9.964411e-01 -4.131348e-02 9.964454e-01 -4.130833e-02 2.938053e-03 3.629592e-03
1.610000e+10 2.622761e-03 3.671741e-03 9.964254e-01 -4.156817e-02 9.964298e-01 -4.156311e-02 2.946088e-03 3.649585e-03
1.620000e+10 2.626822e-03 3.692120e-03 9.964097e-01 -4.182282e-02 9.964142e-01 -4.181784e-02 2.954146e-03 3.669539e-03
1.630000e+10 2.630885e-03 3.712465e-03 9.963939e-01 -4.207741e-02 9.963985e-01 -4.207252e-02 2.962229e-03 3.689454e-03
1.640000e+10 2.634948e-03 3.732775e-03 9.963781e-01 -4.233195e-02 9.963827e-01 -4.232715e-02 2.970336e-03 3.709329e-03
1.650000e+10 2.639012e-03 3.753051e-03 9.963622e-01 -4.258645e-02 9.963669e-01 -4.258173e-02 2.978466e-03 3.729166e-03
1.660000e+10 2.643077e-03 3.773292e-03 9.963462e-01 -4.284090e-02 9.963510e-01 -4.283627e-02 2.986619e-03 3.748963e-03
