#   Hz   S  RI   R   50
!
0.000000e+00 1.220823e-03 0.000000e+00 9.987567e-01 0.000000e+00 9.987555e-01 0.000000e+00 1.189233e-03 0.000000e+00
1.000000e+08 1.220830e-03 1.920331e-05 9.987566e-01 -1.136273e-04 9.987555e-01 -1.135197e-04 1.189244e-03 1.856616e-05
2.000000e+08 1.220848e-03 3.840652e-05 9.987566e-01 -2.272545e-04 9.987555e-01 -2.270392e-04 1.189277e-03 3.713221e-05
3.000000e+08 1.220879e-03 5.760952e-05 9.987565e-01 -3.408813e-04 9.987554e-01 -3.405585e-04 1.189333e-03 5.569803e-05
4.000000e+08 1.220922e-03 7.681220e-05 9.987564e-01 -4.545076e-04 9.987553e-01 -4.540772e-04 1.189411e-03 7.426350e-05
5.000000e+08 1.220978e-03 9.601447e-05 9.987563e-01 -5.681333e-04 9.987552e-01 -5.675954e-04 1.189511e-03 9.282851e-05
6.000000e+08 1.221046e-03 1.152162e-04 9.987561e-01 -6.817580e-04 9.987550e-01 -6.811127e-04 1.189633e-03 1.113930e-04
7.000000e+08 1.221126e-03 1.344174e-04 9.987560e-01 -7.953818e-04 9.987549e-01 -7.946292e-04 1.189777e-03 1.299567e-04
8.000000e+08 1.221218e-03 1.536178e-04 9.987558e-01 -9.090043e-04 9.987547e-01 -9.081445e-04 1.189944e-03 1.485197e-04
9.000000e+08 1.221323e-03 1.728173e-04 9.987555e-01 -1.022625e-03 9.987544e-01 -1.021659e-03 1.190132e-03 1.670817e-04
1.000000e+09 1.221440e-03 1.920160e-04 9.987553e-01 -1.136245e-03 9.987542e-01 -1.135171e-03 1.190343e-03 1.856427e-04
1.100000e+09 1.221570e-03 2.112136e-04 9.987550e-01 -1.249863e-03 9.987539e-01 -1.248683e-03 1.190576e-03 2.042025e-04
1.200000e+09 1.221711e-03 2.304100e-04 9.987546e-01 -1.363479e-03 9.987536e-01 -1.362192e-03 1.190832e-03 2.227611e-04
1.300000e+09 1.221865e-03 2.496052e-04 9.987543e-01 -1.477093e-03 9.987532e-01 -1.475700e-03 1.191109e-03 2.413184e-04
1.400000e+09 1.222032e-03 2.687991e-04 9.987539e-01 -1.590705e-03 9.987529e-01 -1.589205e-03 1.191409e-03 2.598741e-04
1.500000e+09 1.222210e-03 2.879915e-04 9.987535e-01 -1.704314e-03 9.987525e-01 -1.702709e-03 1.191730e-03 2.784282e-04
1.600000e+09 1.222401e-03 3.071823e-04 9.987531e-01 -1.817921e-03 9.987520e-01 -1.816210e-03 1.192074e-03 2.969806e-04
1.700000e+09 1.222604e-03 3.263716e-04 9.987526e-01 -1.931525e-03 9.987516e-01 -1.929708e-03 1.192439e-03 3.155312e-04
1.800000e+09 1.222819e-03 3.455590e-04 9.987521e-01 -2.045126e-03 9.987511e-01 -2.043204e-03 1.192827e-03 3.340799e-04
1.900000e+09 1.223047e-03 3.647446e-04 9.987516e-01 -2.158724e-03 9.987506e-01 -2.156698e-03 1.193237e-03 3.526265e-04
2.000000e+09 1.223286e-03 3.839282e-04 9.987510e-01 -2.272319e-03 9.987501e-01 -2.270188e-03 1.193669e-03 3.711709e-04
2.100000e+09 1.223538e-03 4.031097e-04 9.987505e-01 -2.385910e-03 9.987495e-01 -2.383675e-03 1.194123e-03 3.897131e-04
2.200000e+09 1.223802e-03 4.222891e-04 9.987499e-01 -2.499498e-03 9.987489e-01 -2.497159e-03 1.194598e-03 4.082528e-04
2.300000e+09 1.224078e-03 4.414663e-04 9.987492e-01 -2.613082e-03 9.987483e-01 -2.610640e-03 1.195096e-03 4.267901e-04
2.400000e+09 1.224366e-03 4.606410e-04 9.987486e-01 -2.726663e-03 9.987477e-01 -2.724117e-03 1.195616e-03 4.453247e-04
2.500000e+09 1.224666e-03 4.798133e-04 9.987479e-01 -2.840239e-03 9.987470e-01 -2.837590e-03 1.196157e-03 4.638567e-04
2.600000e+09 1.224978e-03 4.989830e-04 9.987472e-01 -2.953811e-03 9.987463e-01 -2.951060e-03 1.196720e-03 4.823857e-04
2.700000e+09 1.225302e-03 5.181500e-04 9.987465e-01 -3.067378e-03 9.987456e-01 -3.064526e-03 1.197306e-03 5.009119e-04
2.800000e+09 1.225639e-03 5.373143e-04 9.987457e-01 -3.180941e-03 9.987449e-01 -3.177987e-03 1.197912e-03 5.194350e-04
2.900000e+09 1.225987e-03 5.564757e-04 9.987449e-01 -3.294499e-03 9.987441e-01 -3.291444e-03 1.198541e-03 5.379549e-04
3.000000e+09 1.226347e-03 5.756341e-04 9.987441e-01 -3.408053e-03 9.987433e-01 -3.404897e-03 1.199191e-03 5.564715e-04
3.100000e+09 1.226719e-03 5.947895e-04 9.987432e-01 -3.521601e-03 9.987425e-01 -3.518345e-03 1.199863e-03 5.749848e-04
3.200000e+09 1.227103e-03 6.139417e-04 9.987423e-01 -3.635144e-03 9.987416e-01 -3.631789e-03 1.200557e-03 5.934945e-04
3.300000e+09 1.227498e-03 6.330906e-04 9.987414e-01 -3.748682e-03 9.987408e-01 -3.745227e-03 1.201272e-03 6.120007e-04
3.400000e+09 1.227906e-03 6.522362e-04 9.987405e-01 -3.862214e-03 9.987399e-01 -3.858661e-03 1.202009e-03 6.305032e-04
3.500000e+09 1.228325e-03 6.713783e-04 9.987395e-01 -3.975740e-03 9.987389e-01 -3.972089e-03 1.202768e-03 6.490018e-04
3.600000e+09 1.228757e-03 6.905168e-04 9.987386e-01 -4.089261e-03 9.987380e-01 -4.085512e-03 1.203548e-03 6.674965e-04
3.700000e+09 1.229199e-03 7.096517e-04 9.987376e-01 -4.202776e-03 9.987370e-01 -4.198930e-03 1.204349e-03 6.859872e-04
3.800000e+09 1.229654e-03 7.287828e-04 9.987365e-01 -4.316284e-03 9.987360e-01 -4.312342e-03 1.205172e-03 7.044737e-04
3.900000e+09 1.230120e-03 7.479101e-04 9.987354e-01 -4.429786e-03 9.987349e-01 -4.425749e-03 1.206016e-03 7.229560e-04
4.000000e+09 1.230598e-03 7.670334e-04 9.987344e-01 -4.543282e-03 9.987339e-01 -4.539149e-03 1.206881e-03 7.414339e-04
4.100000e+09 1.231088e-03 7.861527e-04 9.987332e-01 -4.656770e-03 9.987328e-01 -4.652544e-03 1.207768e-03 7.599074e-04
4.200000e+09 1.231589e-03 8.052679e-04 9.987321e-01 -4.770253e-03 9.987317e-01 -4.765932e-03 1.208676e-03 7.783764e-04
4.300000e+09 1.232101e-03 8.243788e-04 9.987309e-01 -4.883728e-03 9.987305e-01 -4.879314e-03 1.209605e-03 7.968406e-04
4.400000e+09 1.232625e-03 8.434854e-04 9.987297e-01 -4.997196e-03 9.987294e-01 -4.992690e-03 1.210555e-03 8.153001e-04
4.500000e+09 1.233160e-03 8.625876e-04 9.987285e-01 -5.110657e-03 9.987282e-01 -5.106059e-03 1.211527e-03 8.337548e-04
4.600000e+09 1.233707e-03 8.816853e-04 9.987272e-01 -5.224110e-03 9.987269e-01 -5.219421e-03 1.212519e-03 8.522044e-04
4.700000e+09 1.234265e-03 9.007783e-04 9.987259e-01 -5.337556e-03 9.987257e-01 -5.332776e-03 1.213532e-03 8.706490e-04
4.800000e+09 1.234835e-03 9.198667e-04 9.987246e-01 -5.450994e-03 9.987244e-01 -5.446125e-03 1.214566e-03 8.890885e-04
4.900000e+09 1.235416e-03 9.389503e-04 9.987233e-01 -5.564424e-03 9.987231e-01 -5.559466e-03 1.215621e-03 9.075226e-04
5.000000e+09 1.236007e-03 9.580290e-04 9.987219e-01 -5.677847e-03 9.987218e-01 -5.672800e-03 1.216697e-03 9.259514e-04
5.100000e+09 1.236611e-03 9.771027e-04 9.987206e-01 -5.791261e-03 9.987205e-01 -5.786127e-03 1.217794e-03 9.443747e-04
5.200000e+09 1.237225e-03 9.961714e-04 9.987191e-01 -5.904667e-03 9.987191e-01 -5.899446e-03 1.218911e-03 9.627924e-04
5.300000e+09 1.237850e-03 1.015235e-03 9.987177e-01 -6.018064e-03 9.987177e-01 -6.012758e-03 1.220049e-03 9.812045e-04
5.400000e+09 1.238486e-03 1.034293e-03 9.987162e-01 -6.131453e-03 9.987163e-01 -6.126062e-03 1.221208e-03 9.996108e-04
5.500000e+09 1.239134e-03 1.053346e-03 9.987148e-01 -6.244833e-03 9.987148e-01 -6.239358e-03 1.222387e-03 1.018011e-03
5.600000e+09 1.239792e-03 1.072394e-03 9.987132e-01 -6.358204e-03 9.987133e-01 -6.352645e-03 1.223587e-03 1.036406e-03
5.700000e+09 1.240461e-03 1.091436e-03 9.987117e-01 -6.471567e-03 9.987118e-01 -6.465925e-03 1.224807e-03 1.054794e-03
5.800000e+09 1.241141e-03 1.110472e-03 9.987101e-01 -6.584920e-03 9.987103e-01 -6.579196e-03 1.226047e-03 1.073176e-03
5.900000e+09 1.241832e-03 1.129503e-03 9.987085e-01 -6.698264e-03 9.987088e-01 -6.692459e-03 1.227307e-03 1.091552e-03
6.000000e+09 1.242533e-03 1.148528e-03 9.987069e-01 -6.811598e-03 9.987072e-01 -6.805714e-03 1.228588e-03 1.109922e-03
6.100000e+09 1.243245e-03 1.167547e-03 9.987053e-01 -6.924923e-03 9.987056e-01 -6.918959e-03 1.229889e-03 1.128285e-03
6.200000e+09 1.243968e-03 1.186561e-03 9.987036e-01 -7.038238e-03 9.987040e-01 -7.032196e-03 1.231210e-03 1.146642e-03
6.300000e+09 1.244702e-03 1.205568e-03 9.987019e-01 -7.151543e-03 9.987023e-01 -7.145424e-03 1.232551e-03 1.164992e-03
6.400000e+09 1.245445e-03 1.224569e-03 9.987002e-01 -7.264839e-03 9.987006e-01 -7.258643e-03 1.233912e-03 1.183336e-03
6.500000e+09 1.246200e-03 1.243564e-03 9.986984e-01 -7.378124e-03 9.986989e-01 -7.371853e-03 1.235293e-03 1.201672e-03
6.600000e+09 1.246965e-03 1.262553e-03 9.986967e-01 -7.491399e-03 9.986972e-01 -7.485054e-03 1.236693e-03 1.220002e-03
6.700000e+09 1.247740e-03 1.281535e-03 9.986949e-01 -7.604664e-03 9.986955e-01 -7.598245e-03 1.238114e-03 1.238325e-03
6.800000e+09 1.248525e-03 1.300511e-03 9.986930e-01 -7.717918e-03 9.986937e-01 -7.711426e-03 1.239554e-03 1.256640e-03
6.900000e+09 1.249321e-03 1.319480e-03 9.986912e-01 -7.831162e-03 9.986919e-01 -7.824598e-03 1.241013e-03 1.274949e-03
7.000000e+09 1.250126e-03 1.338443e-03 9.986893e-01 -7.944395e-03 9.986901e-01 -7.937760e-03 1.242492e-03 1.293250e-03
7.100000e+09 1.250942e-03 1.357400e-03 9.986874e-01 -8.057617e-03 9.986882e-01 -8.050913e-03 1.243991e-03 1.311544e-03
7.200000e+09 1.251768e-03 1.376349e-03 9.986855e-01 -8.170828e-03 9.986863e-01 -8.164055e-03 1.245509e-03 1.329831e-03
7.300000e+09 1.252604e-03 1.395292e-03 9.986836e-01 -8.284028e-03 9.986845e-01 -8.277187e-03 1.247046e-03 1.348110e-03
7.400000e+09 1.253450e-03 1.414227e-03 9.986816e-01 -8.397217e-03 9.986825e-01 -8.390310e-03 1.248602e-03 1.366381e-03
7.500000e+09 1.254305e-03 1.433156e-03 9.986796e-01 -8.510394e-03 9.986806e-01 -8.503421e-03 1.250177e-03 1.384645e-03
7.600000e+09 1.255171e-03 1.452078e-03 9.986776e-01 -8.623560e-03 9.986786e-01 -8.616523e-03 1.251772e-03 1.402901e-03
7.700000e+09 1.256046e-03 1.470993e-03 9.986756e-01 -8.736714e-03 9.986766e-01 -8.729613e-03 1.253385e-03 1.421150e-03
7.800000e+09 1.256931e-03 1.489900e-03 9.986735e-01 -8.849857e-03 9.986746e-01 -8.842694e-03 1.255018e-03 1.439390e-03
7.900000e+09 1.257826e-03 1.508800e-03 9.986714e-01 -8.962988e-03 9.986726e-01 -8.955763e-03 1.256669e-03 1.457623e-03
8.000000e+09 1.258730e-03 1.527693e-03 9.986693e-01 -9.076107e-03 9.986705e-01 -9.068822e-03 1.258339e-03 1.475847e-03
8.100000e+09 1.259643e-03 1.546579e-03 9.986671e-01 -9.189214e-03 9.986684e-01 -9.181869e-03 1.260027e-03 1.494063e-03
8.200000e+09 1.260566e-03 1.565457e-03 9.986650e-01 -9.302309e-03 9.986663e-01 -9.294906e-03 1.261734e-03 1.512271e-03
8.300000e+09 1.261498e-03 1.584327e-03 9.986628e-01 -9.415392e-03 9.986642e-01 -9.407931e-03 1.263460e-03 1.530471e-03
8.400000e+09 1.262440e-03 1.603190e-03 9.986606e-01 -9.528462e-03 9.986620e-01 -9.520946e-03 1.265204e-03 1.548662e-03
8.500000e+09 1.263391e-03 1.622045e-03 9.986584e-01 -9.641520e-03 9.986599e-01 -9.633948e-03 1.266966e-03 1.566845e-03
8.600000e+09 1.264351e-03 1.640892e-03 9.986561e-01 -9.754566e-03 9.986577e-01 -9.746940e-03 1.268747e-03 1.585020e-03
8.700000e+09 1.265320e-03 1.659732e-03 9.986538e-01 -9.867598e-03 9.986554e-01 -9.859920e-03 1.270545e-03 1.603186e-03
8.800000e+09 1.266298e-03 1.678564e-03 9.986515e-01 -9.980618e-03 9.986532e-01 -9.972888e-03 1.272362e-03 1.621343e-03
8.900000e+09 1.267284e-03 1.697387e-03 9.986492e-01 -1.009363e-02 9.986509e-01 -1.008584e-02 1.274197e-03 1.639492e-03
9.000000e+09 1.268280e-03 1.716203e-03 9.986469e-01 -1.020662e-02 9.986486e-01 -1.019879e-02 1.276049e-03 1.657631e-03
9.100000e+09 1.269285e-03 1.735011e-03 9.986445e-01 -1.031960e-02 9.986463e-01 -1.031172e-02 1.277920e-03 1.675762e-03
9.200000e+09 1.270298e-03 1.753810e-03 9.986421e-01 -1.043257e-02 9.986440e-01 -1.042464e-02 1.279808e-03 1.693884e-03
9.300000e+09 1.271320e-03 1.772602e-03 9.986397e-01 -1.054552e-02 9.986416e-01 -1.053755e-02 1.281713e-03 1.711997e-03
9.400000e+09 1.272350e-03 1.791385e-03 9.986373e-01 -1.065846e-02 9.986392e-01 -1.065045e-02 1.283637e-03 1.730101e-03
9.500000e+09 1.273389e-03 1.810159e-03 9.986348e-01 -1.077139e-02 9.986368e-01 -1.076333e-02 1.285577e-03 1.748196e-03
9.600000e+09 1.274437e-03 1.828926e-03 9.986323e-01 -1.088431e-02 9.986344e-01 -1.087620e-02 1.287535e-03 1.766281e-03
9.700000e+09 1.275492e-03 1.847683e-03 9.986298e-01 -1.099721e-02 9.986320e-01 -1.098906e-02 1.289510e-03 1.784358e-03
9.800000e+09 1.276556e-03 1.866433e-03 9.986273e-01 -1.111010e-02 9.986295e-01 -1.110191e-02 1.291503e-03 1.802425e-03
9.900000e+09 1.277629e-03 1.885174e-03 9.986248e-01 -1.122297e-02 9.986270e-01 -1.121475e-02 1.293512e-03 1.820482e-03
1.000000e+10 1.278709e-03 1.903906e-03 9.986222e-01 -1.133583e-02 9.986245e-01 -1.132757e-02 1.295538e-03 1.838531e-03
1.010000e+10 1.279797e-03 1.922629e-03 9.986196e-01 -1.144867e-02 9.986219e-01 -1.144038e-02 1.297582e-03 1.856569e-03
1.020000e+10 1.280894e-03 1.941344e-03 9.986170e-01 -1.156151e-02 9.986194e-01 -1.155317e-02 1.299642e-03 1.874599e-03
1.030000e+10 1.281998e-03 1.960050e-03 9.986144e-01 -1.167432e-02 9.986168e-01 -1.166596e-02 1.301718e-03 1.892618e-03
1.040000e+10 1.283110e-03 1.978747e-03 9.986117e-01 -1.178713e-02 9.986142e-01 -1.177873e-02 1.303812e-03 1.910628e-03
1.050000e+10 1.284230e-03 1.997436e-03 9.986091e-01 -1.189992e-02 9.986116e-01 -1.189148e-02 1.305921e-03 1.928628e-03
1.060000e+10 1.285357e-03 2.016115e-03 9.986064e-01 -1.201269e-02 9.986090e-01 -1.200423e-02 1.308047e-03 1.946619e-03
1.070000e+10 1.286492e-03 2.034785e-03 9.986036e-01 -1.212545e-02 9.986063e-01 -1.211696e-02 1.310190e-03 1.964599e-03
1.080000e+10 1.287635e-03 2.053447e-03 9.986009e-01 -1.223820e-02 9.986036e-01 -1.222968e-02 1.312349e-03 1.982570e-03
1.090000e+10 1.288785e-03 2.072099e-03 9.985982e-01 -1.235093e-02 9.986009e-01 -1.234238e-02 1.314523e-03 2.000531e-03
1.100000e+10 1.289942e-03 2.090742e-03 9.985954e-01 -1.246365e-02 9.985982e-01 -1.245507e-02 1.316714e-03 2.018482e-03
1.110000e+10 1.291107e-03 2.109376e-03 9.985926e-01 -1.257635e-02 9.985954e-01 -1.256775e-02 1.318921e-03 2.036423e-03
1.120000e+10 1.292278e-03 2.128001e-03 9.985898e-01 -1.268904e-02 9.985927e-01 -1.268041e-02 1.321144e-03 2.054353e-03
1.130000e+10 1.293457e-03 2.146616e-03 9.985869e-01 -1.280171e-02 9.985899e-01 -1.279306e-02 1.323382e-03 2.072274e-03
1.140000e+10 1.294643e-03 2.165222e-03 9.985841e-01 -1.291437e-02 9.985871e-01 -1.290570e-02 1.325636e-03 2.090184e-03
1.150000e+10 1.295836e-03 2.183819e-03 9.985812e-01 -1.302701e-02 9.985843e-01 -1.301832e-02 1.327905e-03 2.108084e-03
1.160000e+10 1.297036e-03 2.202407e-03 9.985783e-01 -1.313964e-02 9.985814e-01 -1.313093e-02 1.330190e-03 2.125974e-03
1.170000e+10 1.298242e-03 2.220985e-03 9.985754e-01 -1.325225e-02 9.985785e-01 -1.324353e-02 1.332490e-03 2.143854e-03
1.180000e+10 1.299455e-03 2.239553e-03 9.985724e-01 -1.336485e-02 9.985757e-01 -1.335611e-02 1.334805e-03 2.161723e-03
1.190000e+10 1.300675e-03 2.258112e-03 9.985695e-01 -1.347743e-02 9.985728e-01 -1.346868e-02 1.337136e-03 2.179582e-03
1.200000e+10 1.301902e-03 2.276661e-03 9.985665e-01 -1.359000e-02 9.985698e-01 -1.358123e-02 1.339481e-03 2.197430e-03
1.210000e+10 1.303135e-03 2.295201e-03 9.985635e-01 -1.370255e-02 9.985669e-01 -1.369377e-02 1.341842e-03 2.215268e-03
1.220000e+10 1.304374e-03 2.313731e-03 9.985605e-01 -1.381509e-02 9.985639e-01 -1.380630e-02 1.344217e-03 2.233096e-03
1.230000e+10 1.305619e-03 2.332251e-03 9.985575e-01 -1.392761e-02 9.985609e-01 -1.391881e-02 1.346607e-03 2.250913e-03
1.240000e+10 1.306871e-03 2.350762e-03 9.985544e-01 -1.404012e-02 9.985579e-01 -1.403131e-02 1.349011e-03 2.268719e-03
1.250000e+10 1.308129e-03 2.369263e-03 9.985514e-01 -1.415261e-02 9.985549e-01 -1.414379e-02 1.351430e-03 2.286515e-03
1.260000e+10 1.309393e-03 2.387754e-03 9.985483e-01 -1.426509e-02 9.985519e-01 -1.425626e-02 1.353864e-03 2.304300e-03
1.270000e+10 1.310663e-03 2.406236e-03 9.985452e-01 -1.437755e-02 9.985488e-01 -1.436871e-02 1.356312e-03 2.322074e-03
1.280000e+10 1.311939e-03 2.424707e-03 9.985420e-01 -1.448999e-02 9.985457e-01 -1.448115e-02 1.358774e-03 2.339837e-03
1.290000e+10 1.313220e-03 2.443169e-03 9.985389e-01 -1.460242e-02 9.985426e-01 -1.459358e-02 1.361250e-03 2.357590e-03
1.300000e+10 1.314508e-03 2.461620e-03 9.985357e-01 -1.471483e-02 9.985395e-01 -1.470599e-02 1.363740e-03 2.375332e-03
1.310000e+10 1.315801e-03 2.480062e-03 9.985326e-01 -1.482723e-02 9.985364e-01 -1.481839e-02 1.366244e-03 2.393063e-03
1.320000e+10 1.317099e-03 2.498494e-03 9.985294e-01 -1.493961e-02 9.985332e-01 -1.493077e-02 1.368761e-03 2.410784e-03
1.330000e+10 1.318403e-03 2.516916e-03 9.985261e-01 -1.505198e-02 9.985301e-01 -1.504314e-02 1.371293e-03 2.428493e-03
1.340000e+10 1.319713e-03 2.535328e-03 9.985229e-01 -1.516433e-02 9.985269e-01 -1.515549e-02 1.373838e-03 2.446192e-03
1.350000e+10 1.321027e-03 2.553729e-03 9.985197e-01 -1.527667e-02 9.985237e-01 -1.526783e-02 1.376397e-03 2.463879e-03
1.360000e+10 1.322347e-03 2.572121e-03 9.985164e-01 -1.538898e-02 9.985205e-01 -1.538016e-02 1.378969e-03 2.481556e-03
1.370000e+10 1.323672e-03 2.590502e-03 9.985131e-01 -1.550129e-02 9.985172e-01 -1.549247e-02 1.381554e-03 2.499222e-03
1.380000e+10 1.325003e-03 2.608874e-03 9.985098e-01 -1.561358e-02 9.985139e-01 -1.560476e-02 1.384152e-03 2.516876e-03
1.390000e+10 1.326338e-03 2.627235e-03 9.985065e-01 -1.572585e-02 9.985107e-01 -1.571704e-02 1.386764e-03 2.534520e-03
1.400000e+10 1.327678e-03 2.645586e-03 9.985032e-01 -1.583810e-02 9.985074e-01 -1.582931e-02 1.389388e-03 2.552153e-03
1.410000e+10 1.329022e-03 2.663927e-03 9.984998e-01 -1.595034e-02 9.985041e-01 -1.594156e-02 1.392025e-03 2.569774e-03
1.420000e+10 1.330372e-03 2.682258e-03 9.984964e-01 -1.606257e-02 9.985007e-01 -1.605379e-02 1.394676e-03 2.587384e-03
1.430000e+10 1.331726e-03 2.700578e-03 9.984931e-01 -1.617478e-02 9.984974e-01 -1.616601e-02 1.397338e-03 2.604984e-03
1.440000e+10 1.333085e-03 2.718888e-03 9.984896e-01 -1.628697e-02 9.984940e-01 -1.627822e-02 1.400014e-03 2.622572e-03
1.450000e+10 1.334448e-03 2.737188e-03 9.984862e-01 -1.639914e-02 9.984906e-01 -1.639041e-02 1.402702e-03 2.640149e-03
1.460000e+10 1.335815e-03 2.755478e-03 9.984828e-01 -1.651130e-02 9.984872e-01 -1.650259e-02 1.405402e-03 2.657715e-03
1.470000e+10 1.337187e-03 2.773757e-03 9.984793e-01 -1.662345e-02 9.984838e-01 -1.661475e-02 1.408114e-03 2.675270e-03
1.480000e+10 1.338563e-03 2.792026e-03 9.984759e-01 -1.673558e-02 9.984804e-01 -1.672690e-02 1.410839e-03 2.692813e-03
1.490000e+10 1.339943e-03 2.810285e-03 9.984724e-01 -1.684769e-02 9.984770e-01 -1.683903e-02 1.413575e-03 2.710345e-03
1.500000e+10 1.341327e-03 2.828533e-03 9.984689e-01 -1.695978e-02 9.984735e-01 -1.695115e-02 1.416324e-03 2.727867e-03
1.510000e+10 1.342716e-03 2.846771e-03 9.984654e-01 -1.707186e-02 9.984700e-01 -1.706325e-02 1.419084e-03 2.745376e-03
1.520000e+10 1.344108e-03 2.864999e-03 9.984619e-01 -1.718393e-02 9.984665e-01 -1.717534e-02 1.421856e-03 2.762875e-03
1.530000e+10 1.345504e-03 2.883216e-03 9.984583e-01 -1.729598e-02 9.984630e-01 -1.728741e-02 1.424640e-03 2.780362e-03
1.540000e+10 1.346903e-03 2.901423e-03 9.984548e-01 -1.740801e-02 9.984595e-01 -1.739947e-02 1.427436e-03 2.797839e-03
1.550000e+10 1.348306e-03 2.919619e-03 9.984512e-01 -1.752002e-02 9.984559e-01 -1.751151e-02 1.430242e-03 2.815303e-03
1.560000e+10 1.349713e-03 2.937805e-03 9.984476e-01 -1.763203e-02 9.984524e-01 -1.762354e-02 1.433061e-03 2.832757e-03
1.570000e+10 1.351123e-03 2.955981e-03 9.984440e-01 -1.774401e-02 9.984488e-01 -1.773555e-02 1.435890e-03 2.850199e-03
1.580000e+10 1.352537e-03 2.974146e-03 9.984404e-01 -1.785598e-02 9.984452e-01 -1.784755e-02 1.438730e-03 2.867631e-03
1.590000e+10 1.353954e-03 2.992301e-03 9.984367e-01 -1.796793e-02 9.984416e-01 -1.795953e-02 1.441582e-03 2.885050e-03
1.600000e+10 1.355374e-03 3.010445e-03 9.984331e-01 -1.807987e-02 9.984380e-01 -1.807150e-02 1.444444e-03 2.902459e-03
1.610000e+10 1.356797e-03 3.028579e-03 9.984294e-01 -1.819179e-02 9.984343e-01 -1.818345e-02 1.447318e-03 2.919856e-03
1.620000e+10 1.358223e-03 3.046702e-03 9.984257e-01 -1.830369e-02 9.984307e-01 -1.829539e-02 1.450202e-03 2.937242e-03
1.630000e+10 1.359652e-03 3.064815e-03 9.984220e-01 -1.841558e-02 9.984270e-01 -1.840731e-02 1.453096e-03 2.954617e-03
1.640000e+10 1.361085e-03 3.082918e-03 9.984183e-01 -1.852745e-02 9.984233e-01 -1.851922e-02 1.456002e-03 2.971980e-03
1.650000e+10 1.362520e-03 3.101010e-03 9.984146e-01 -1.863931e-02 9.984196e-01 -1.863112e-02 1.458917e-03 2.989332e-03
1.660000e+10 1.363957e-03 3.119092e-03 9.984109e-01 -1.875115e-02 9.984159e-01 -1.874299e-02 1.461843e-03 3.006673e-03
